#include "mbed.h"
#include "LSM9DS1.h"
#include "mbed_power_mgmt.h"

#include <math.h>
#include <time.h>
#include <chrono>
#include <deque>

// #define PI 3.14159265358979323846

const PinName spi_MOSI = PinName::PC_12;
const PinName spi_MISO = PinName::PC_11;
const PinName spi_CLK = PinName::PC_10;
const PinName spi_CS = PinName::PA_4;
const PinName chip_EN = PinName::PD_7;
const PinName spi_EN = PinName::PD_2;
const PinName clkExt_En = PinName::PG_4;
const PinName clk_Ext = PinName::PA_8;
const PinName clk_En = PinName::PF_2;
const PinName vco_En = PinName::PD_1;
const PinName clkSel_0 = PinName::PE_15;
const PinName clkSel_1 = PinName::PE_11;
const PinName clkSel_2 = PinName::PF_3;
const PinName clkSel_3 = PinName::PG_6;
const PinName clkSel_4 = PinName::PD_0;
const PinName clkSel_5 = PinName::PG_5;
const PinName divSel_0 = PinName::PD_14;
const PinName divSel_1 = PinName::PD_15;
const PinName divSel_2 = PinName::PF_14;
const PinName divSel_3 = PinName::PE_9;
const PinName fixDivSel_0 = PinName::PE_7;
const PinName fixDivSel_1 = PinName::PD_11;
const PinName dlIn_0 = PinName::PD_12;
const PinName dlIn_1 = PinName::PD_13;
const PinName dlIn_2 = PinName::PE_8;


SPI spi(spi_MOSI, spi_MISO, spi_CLK); 
DigitalOut cs(spi_CS);
DigitalOut chip_en(chip_EN);
DigitalOut spi_en(spi_EN);
DigitalOut clkext_en(clkExt_En);
PwmOut clk_ext(clk_Ext);
//DigitalOut clk_ext(clk_Ext);
DigitalOut clk_en(clk_En);
DigitalOut vco_en(vco_En);
DigitalOut clksel_0(clkSel_0);
DigitalOut clksel_1(clkSel_1);
DigitalOut clksel_2(clkSel_2);
DigitalOut clksel_3(clkSel_3);
DigitalOut clksel_4(clkSel_4);
DigitalOut clksel_5(clkSel_5);
DigitalOut divsel_0(divSel_0);
DigitalOut divsel_1(divSel_1);
DigitalOut divsel_2(divSel_2);
DigitalOut divsel_3(divSel_3);
DigitalOut fixdivsel_0(fixDivSel_0);
DigitalOut fixdivsel_1(fixDivSel_1);
DigitalOut dlin_0(dlIn_0);
DigitalOut dlin_1(dlIn_1);
DigitalOut dlin_2(dlIn_2);

short spi_addr;
short spi_data;


int main()
{
    
    chip_en = 1;
    spi_en = 1;
    clkext_en = 1;
    // clk_ext = 0;
    clk_en = 1;
    vco_en = 0;

    clksel_0 = 0;
    clksel_1 = 1;
    clksel_2 = 0;
    clksel_3 = 1;
    clksel_4 = 0;
    clksel_5 = 1;

    divsel_0 = 0;
    divsel_1 = 1;
    divsel_2 = 0;
    divsel_3 = 0;

    fixdivsel_0 = 0;
    fixdivsel_1 = 0;

    dlin_0 = 1;
    dlin_1 = 1;
    dlin_2 = 1;

    //SPI config.
    cs = 1;
    spi.format(8,3);
    spi.frequency(1000000); //1MHz
    // spi.frequency(100000000); //100MHz
    printf("SPI Master Initialized \n");

    clk_ext.period_us(100);
    clk_ext.write(0.50f);

    
    //Add SPI call to configure the instructions
    cs = 0;
    while (1) {
        cs = 0;
        //clk_ext = ~clk_ext;
        // printf("SPI Master Initialized Loop \n");
        spi.write(0xFD);  //first byte for idle state
        spi.write(0x0C);  //second byte for idle state
        spi.write(0x00);  //first byte for WR cmd
        spi.write(0x40);  //second byte for WR cmd

        spi.write(0x06);	spi.write(0x40);	spi.write(0x02);	spi.write(0x00);	spi.write(0x00);	spi.write(0x40);	
        spi.write(0x04);	spi.write(0x40);	spi.write(0x02);	spi.write(0x00);	spi.write(0x0f);	spi.write(0x36);	
        spi.write(0x02);	spi.write(0x40);	spi.write(0x02);	spi.write(0x00);	spi.write(0x1f);	spi.write(0x80);	
        spi.write(0x00);	spi.write(0x40);	spi.write(0x02);	spi.write(0x00);	spi.write(0xff);	spi.write(0xff);	
        spi.write(0x0e);	spi.write(0x40);	spi.write(0x02);	spi.write(0x00);	spi.write(0x00);	spi.write(0x40);	
        spi.write(0x0c);	spi.write(0x40);	spi.write(0x02);	spi.write(0x00);	spi.write(0x06);	spi.write(0x00);	
        spi.write(0x0a);	spi.write(0x40);	spi.write(0x02);	spi.write(0x00);	spi.write(0x1f);	spi.write(0x00);	
        spi.write(0x08);	spi.write(0x40);	spi.write(0x02);	spi.write(0x00);	spi.write(0xff);	spi.write(0xff);	
        spi.write(0x16);	spi.write(0x40);	spi.write(0x02);	spi.write(0x00);	spi.write(0x00);	spi.write(0x00);	
        spi.write(0x14);	spi.write(0x40);	spi.write(0x02);	spi.write(0x00);	spi.write(0x00);	spi.write(0x00);	
        spi.write(0x12);	spi.write(0x40);	spi.write(0x02);	spi.write(0x00);	spi.write(0x1f);	spi.write(0x00);	
        spi.write(0x10);	spi.write(0x40);	spi.write(0x02);	spi.write(0x00);	spi.write(0xfc);	spi.write(0xff);	
        spi.write(0x1e);	spi.write(0x40);	spi.write(0x02);	spi.write(0x00);	spi.write(0x00);	spi.write(0x00);	
        spi.write(0x1c);	spi.write(0x40);	spi.write(0x02);	spi.write(0x00);	spi.write(0x00);	spi.write(0x00);	
        spi.write(0x1a);	spi.write(0x40);	spi.write(0x02);	spi.write(0x00);	spi.write(0x1f);	spi.write(0x00);	
        spi.write(0x18);	spi.write(0x40);	spi.write(0x02);	spi.write(0x00);	spi.write(0xff);	spi.write(0xff);	
        spi.write(0x26);	spi.write(0x40);	spi.write(0x02);	spi.write(0x00);	spi.write(0x00);	spi.write(0x00);	
        spi.write(0x24);	spi.write(0x40);	spi.write(0x02);	spi.write(0x00);	spi.write(0x00);	spi.write(0x00);	
        spi.write(0x22);	spi.write(0x40);	spi.write(0x02);	spi.write(0x00);	spi.write(0x1f);	spi.write(0x00);	
        spi.write(0x20);	spi.write(0x40);	spi.write(0x02);	spi.write(0x00);	spi.write(0xff);	spi.write(0xff);	
        spi.write(0x2e);	spi.write(0x40);	spi.write(0x02);	spi.write(0x00);	spi.write(0x00);	spi.write(0x00);	
        spi.write(0x2c);	spi.write(0x40);	spi.write(0x02);	spi.write(0x00);	spi.write(0x00);	spi.write(0x00);	
        spi.write(0x2a);	spi.write(0x40);	spi.write(0x02);	spi.write(0x00);	spi.write(0x1f);	spi.write(0x00);	
        spi.write(0x28);	spi.write(0x40);	spi.write(0x02);	spi.write(0x00);	spi.write(0xff);	spi.write(0xff);	
        spi.write(0x36);	spi.write(0x40);	spi.write(0x02);	spi.write(0x00);	spi.write(0x00);	spi.write(0x00);	
        spi.write(0x34);	spi.write(0x40);	spi.write(0x02);	spi.write(0x00);	spi.write(0x00);	spi.write(0x00);	
        spi.write(0x32);	spi.write(0x40);	spi.write(0x02);	spi.write(0x00);	spi.write(0x1f);	spi.write(0x00);	
        spi.write(0x30);	spi.write(0x40);	spi.write(0x02);	spi.write(0x00);	spi.write(0xff);	spi.write(0xff);	
        spi.write(0x3e);	spi.write(0x40);	spi.write(0x02);	spi.write(0x00);	spi.write(0x00);	spi.write(0x00);	
        spi.write(0x3c);	spi.write(0x40);	spi.write(0x02);	spi.write(0x00);	spi.write(0x00);	spi.write(0x00);	
        spi.write(0x3a);	spi.write(0x40);	spi.write(0x02);	spi.write(0x00);	spi.write(0x1f);	spi.write(0x00);	
        spi.write(0x38);	spi.write(0x40);	spi.write(0x02);	spi.write(0x00);	spi.write(0xff);	spi.write(0xff);	
        spi.write(0x46);	spi.write(0x40);	spi.write(0x02);	spi.write(0x00);	spi.write(0x00);	spi.write(0x00);	
        spi.write(0x44);	spi.write(0x40);	spi.write(0x02);	spi.write(0x00);	spi.write(0x00);	spi.write(0x00);	
        spi.write(0x42);	spi.write(0x40);	spi.write(0x02);	spi.write(0x00);	spi.write(0x1f);	spi.write(0x00);	
        spi.write(0x40);	spi.write(0x40);	spi.write(0x02);	spi.write(0x00);	spi.write(0xff);	spi.write(0xff);	
        spi.write(0x4e);	spi.write(0x40);	spi.write(0x02);	spi.write(0x00);	spi.write(0x00);	spi.write(0x00);	
        spi.write(0x4c);	spi.write(0x40);	spi.write(0x02);	spi.write(0x00);	spi.write(0x00);	spi.write(0x00);	
        spi.write(0x4a);	spi.write(0x40);	spi.write(0x02);	spi.write(0x00);	spi.write(0x1f);	spi.write(0x00);	
        spi.write(0x48);	spi.write(0x40);	spi.write(0x02);	spi.write(0x00);	spi.write(0xff);	spi.write(0xff);	
        spi.write(0x56);	spi.write(0x40);	spi.write(0x02);	spi.write(0x00);	spi.write(0x00);	spi.write(0x00);	
        spi.write(0x54);	spi.write(0x40);	spi.write(0x02);	spi.write(0x00);	spi.write(0x00);	spi.write(0x00);	
        spi.write(0x52);	spi.write(0x40);	spi.write(0x02);	spi.write(0x00);	spi.write(0x1f);	spi.write(0x00);	
        spi.write(0x50);	spi.write(0x40);	spi.write(0x02);	spi.write(0x00);	spi.write(0xff);	spi.write(0xff);	
        spi.write(0x5e);	spi.write(0x40);	spi.write(0x02);	spi.write(0x00);	spi.write(0x00);	spi.write(0x00);	
        spi.write(0x5c);	spi.write(0x40);	spi.write(0x02);	spi.write(0x00);	spi.write(0x00);	spi.write(0x00);	
        spi.write(0x5a);	spi.write(0x40);	spi.write(0x02);	spi.write(0x00);	spi.write(0x1f);	spi.write(0x00);	
        spi.write(0x58);	spi.write(0x40);	spi.write(0x02);	spi.write(0x00);	spi.write(0xff);	spi.write(0xff);	
        spi.write(0x66);	spi.write(0x40);	spi.write(0x02);	spi.write(0x00);	spi.write(0x00);	spi.write(0x00);	
        spi.write(0x64);	spi.write(0x40);	spi.write(0x02);	spi.write(0x00);	spi.write(0x00);	spi.write(0x00);	
        spi.write(0x62);	spi.write(0x40);	spi.write(0x02);	spi.write(0x00);	spi.write(0x1f);	spi.write(0x00);	
        spi.write(0x60);	spi.write(0x40);	spi.write(0x02);	spi.write(0x00);	spi.write(0xff);	spi.write(0xff);	
        spi.write(0x6e);	spi.write(0x40);	spi.write(0x02);	spi.write(0x00);	spi.write(0x00);	spi.write(0x00);	
        spi.write(0x6c);	spi.write(0x40);	spi.write(0x02);	spi.write(0x00);	spi.write(0x00);	spi.write(0x00);	
        spi.write(0x6a);	spi.write(0x40);	spi.write(0x02);	spi.write(0x00);	spi.write(0x1f);	spi.write(0x00);	
        spi.write(0x68);	spi.write(0x40);	spi.write(0x02);	spi.write(0x00);	spi.write(0xff);	spi.write(0xff);	
        spi.write(0x76);	spi.write(0x40);	spi.write(0x02);	spi.write(0x00);	spi.write(0x00);	spi.write(0x00);	
        spi.write(0x74);	spi.write(0x40);	spi.write(0x02);	spi.write(0x00);	spi.write(0x00);	spi.write(0x00);	
        spi.write(0x72);	spi.write(0x40);	spi.write(0x02);	spi.write(0x00);	spi.write(0x1f);	spi.write(0x00);	
        spi.write(0x70);	spi.write(0x40);	spi.write(0x02);	spi.write(0x00);	spi.write(0xff);	spi.write(0xff);	
        spi.write(0x7e);	spi.write(0x40);	spi.write(0x02);	spi.write(0x00);	spi.write(0x00);	spi.write(0x00);	
        spi.write(0x7c);	spi.write(0x40);	spi.write(0x02);	spi.write(0x00);	spi.write(0x00);	spi.write(0x00);	
        spi.write(0x7a);	spi.write(0x40);	spi.write(0x02);	spi.write(0x00);	spi.write(0x1f);	spi.write(0x00);	
        spi.write(0x78);	spi.write(0x40);	spi.write(0x02);	spi.write(0x00);	spi.write(0xff);	spi.write(0xff);	
        spi.write(0x86);	spi.write(0x40);	spi.write(0x02);	spi.write(0x00);	spi.write(0x00);	spi.write(0x00);	
        spi.write(0x84);	spi.write(0x40);	spi.write(0x02);	spi.write(0x00);	spi.write(0x00);	spi.write(0x00);	
        spi.write(0x82);	spi.write(0x40);	spi.write(0x02);	spi.write(0x00);	spi.write(0x1f);	spi.write(0x00);	
        spi.write(0x80);	spi.write(0x40);	spi.write(0x02);	spi.write(0x00);	spi.write(0xff);	spi.write(0xff);	
        spi.write(0x8e);	spi.write(0x40);	spi.write(0x02);	spi.write(0x00);	spi.write(0x00);	spi.write(0x00);	
        spi.write(0x8c);	spi.write(0x40);	spi.write(0x02);	spi.write(0x00);	spi.write(0x00);	spi.write(0x00);	
        spi.write(0x8a);	spi.write(0x40);	spi.write(0x02);	spi.write(0x00);	spi.write(0x1f);	spi.write(0x00);	
        spi.write(0x88);	spi.write(0x40);	spi.write(0x02);	spi.write(0x00);	spi.write(0xff);	spi.write(0xff);	
        spi.write(0x96);	spi.write(0x40);	spi.write(0x02);	spi.write(0x00);	spi.write(0x00);	spi.write(0x00);	
        spi.write(0x94);	spi.write(0x40);	spi.write(0x02);	spi.write(0x00);	spi.write(0x00);	spi.write(0x00);	
        spi.write(0x92);	spi.write(0x40);	spi.write(0x02);	spi.write(0x00);	spi.write(0x1f);	spi.write(0x00);	
        spi.write(0x90);	spi.write(0x40);	spi.write(0x02);	spi.write(0x00);	spi.write(0xff);	spi.write(0xff);	
        spi.write(0x9e);	spi.write(0x40);	spi.write(0x02);	spi.write(0x00);	spi.write(0x00);	spi.write(0x00);	
        spi.write(0x9c);	spi.write(0x40);	spi.write(0x02);	spi.write(0x00);	spi.write(0x00);	spi.write(0x00);	
        spi.write(0x9a);	spi.write(0x40);	spi.write(0x02);	spi.write(0x00);	spi.write(0x1f);	spi.write(0x00);	
        spi.write(0x98);	spi.write(0x40);	spi.write(0x02);	spi.write(0x00);	spi.write(0xff);	spi.write(0xff);	
        spi.write(0xa6);	spi.write(0x40);	spi.write(0x02);	spi.write(0x00);	spi.write(0x00);	spi.write(0x00);	
        spi.write(0xa4);	spi.write(0x40);	spi.write(0x02);	spi.write(0x00);	spi.write(0x00);	spi.write(0x00);	
        spi.write(0xa2);	spi.write(0x40);	spi.write(0x02);	spi.write(0x00);	spi.write(0x1f);	spi.write(0x00);	
        spi.write(0xa0);	spi.write(0x40);	spi.write(0x02);	spi.write(0x00);	spi.write(0xff);	spi.write(0xff);	
        spi.write(0xae);	spi.write(0x40);	spi.write(0x02);	spi.write(0x00);	spi.write(0x00);	spi.write(0x00);	
        spi.write(0xac);	spi.write(0x40);	spi.write(0x02);	spi.write(0x00);	spi.write(0x00);	spi.write(0x00);	
        spi.write(0xaa);	spi.write(0x40);	spi.write(0x02);	spi.write(0x00);	spi.write(0x1f);	spi.write(0x00);	
        spi.write(0xa8);	spi.write(0x40);	spi.write(0x02);	spi.write(0x00);	spi.write(0xff);	spi.write(0xff);	
        spi.write(0xb6);	spi.write(0x40);	spi.write(0x02);	spi.write(0x00);	spi.write(0x00);	spi.write(0x00);	
        spi.write(0xb4);	spi.write(0x40);	spi.write(0x02);	spi.write(0x00);	spi.write(0x00);	spi.write(0x00);	
        spi.write(0xb2);	spi.write(0x40);	spi.write(0x02);	spi.write(0x00);	spi.write(0x1f);	spi.write(0x00);	
        spi.write(0xb0);	spi.write(0x40);	spi.write(0x02);	spi.write(0x00);	spi.write(0xff);	spi.write(0xff);	
        spi.write(0x06);	spi.write(0x41);	spi.write(0x02);	spi.write(0x00);	spi.write(0x00);	spi.write(0x40);	
        spi.write(0x04);	spi.write(0x41);	spi.write(0x02);	spi.write(0x00);	spi.write(0x0f);	spi.write(0x36);	
        spi.write(0x02);	spi.write(0x41);	spi.write(0x02);	spi.write(0x00);	spi.write(0x1f);	spi.write(0x80);	
        spi.write(0x00);	spi.write(0x41);	spi.write(0x02);	spi.write(0x00);	spi.write(0xff);	spi.write(0xff);	
        spi.write(0x0e);	spi.write(0x41);	spi.write(0x02);	spi.write(0x00);	spi.write(0x00);	spi.write(0x00);	
        spi.write(0x0c);	spi.write(0x41);	spi.write(0x02);	spi.write(0x00);	spi.write(0x00);	spi.write(0x00);	
        spi.write(0x0a);	spi.write(0x41);	spi.write(0x02);	spi.write(0x00);	spi.write(0x1f);	spi.write(0x00);	
        spi.write(0x08);	spi.write(0x41);	spi.write(0x02);	spi.write(0x00);	spi.write(0xff);	spi.write(0xff);	
        spi.write(0x16);	spi.write(0x41);	spi.write(0x02);	spi.write(0x00);	spi.write(0x00);	spi.write(0x00);	
        spi.write(0x14);	spi.write(0x41);	spi.write(0x02);	spi.write(0x00);	spi.write(0x00);	spi.write(0x00);	
        spi.write(0x12);	spi.write(0x41);	spi.write(0x02);	spi.write(0x00);	spi.write(0x1f);	spi.write(0x00);	
        spi.write(0x10);	spi.write(0x41);	spi.write(0x02);	spi.write(0x00);	spi.write(0xff);	spi.write(0xaf);	
        spi.write(0x1e);	spi.write(0x41);	spi.write(0x02);	spi.write(0x00);	spi.write(0x00);	spi.write(0x40);	
        spi.write(0x1c);	spi.write(0x41);	spi.write(0x02);	spi.write(0x00);	spi.write(0x08);	spi.write(0x00);	
        spi.write(0x1a);	spi.write(0x41);	spi.write(0x02);	spi.write(0x00);	spi.write(0x1f);	spi.write(0x40);	
        spi.write(0x18);	spi.write(0x41);	spi.write(0x02);	spi.write(0x00);	spi.write(0xfc);	spi.write(0xff);	
        spi.write(0x26);	spi.write(0x41);	spi.write(0x02);	spi.write(0x00);	spi.write(0x00);	spi.write(0x00);	
        spi.write(0x24);	spi.write(0x41);	spi.write(0x02);	spi.write(0x00);	spi.write(0x00);	spi.write(0x00);	
        spi.write(0x22);	spi.write(0x41);	spi.write(0x02);	spi.write(0x00);	spi.write(0x1f);	spi.write(0x00);	
        spi.write(0x20);	spi.write(0x41);	spi.write(0x02);	spi.write(0x00);	spi.write(0xff);	spi.write(0xff);	
        spi.write(0x2e);	spi.write(0x41);	spi.write(0x02);	spi.write(0x00);	spi.write(0x00);	spi.write(0x00);	
        spi.write(0x2c);	spi.write(0x41);	spi.write(0x02);	spi.write(0x00);	spi.write(0x00);	spi.write(0x00);	
        spi.write(0x2a);	spi.write(0x41);	spi.write(0x02);	spi.write(0x00);	spi.write(0x1f);	spi.write(0x00);	
        spi.write(0x28);	spi.write(0x41);	spi.write(0x02);	spi.write(0x00);	spi.write(0xff);	spi.write(0xff);	
        spi.write(0x36);	spi.write(0x41);	spi.write(0x02);	spi.write(0x00);	spi.write(0x00);	spi.write(0x00);	
        spi.write(0x34);	spi.write(0x41);	spi.write(0x02);	spi.write(0x00);	spi.write(0x00);	spi.write(0x00);	
        spi.write(0x32);	spi.write(0x41);	spi.write(0x02);	spi.write(0x00);	spi.write(0x1f);	spi.write(0x00);	
        spi.write(0x30);	spi.write(0x41);	spi.write(0x02);	spi.write(0x00);	spi.write(0xff);	spi.write(0xff);	
        spi.write(0x3e);	spi.write(0x41);	spi.write(0x02);	spi.write(0x00);	spi.write(0x00);	spi.write(0x00);	
        spi.write(0x3c);	spi.write(0x41);	spi.write(0x02);	spi.write(0x00);	spi.write(0x00);	spi.write(0x00);	
        spi.write(0x3a);	spi.write(0x41);	spi.write(0x02);	spi.write(0x00);	spi.write(0x1f);	spi.write(0x00);	
        spi.write(0x38);	spi.write(0x41);	spi.write(0x02);	spi.write(0x00);	spi.write(0xff);	spi.write(0xff);	
        spi.write(0x46);	spi.write(0x41);	spi.write(0x02);	spi.write(0x00);	spi.write(0x00);	spi.write(0x00);	
        spi.write(0x44);	spi.write(0x41);	spi.write(0x02);	spi.write(0x00);	spi.write(0x00);	spi.write(0x00);	
        spi.write(0x42);	spi.write(0x41);	spi.write(0x02);	spi.write(0x00);	spi.write(0x1f);	spi.write(0x00);	
        spi.write(0x40);	spi.write(0x41);	spi.write(0x02);	spi.write(0x00);	spi.write(0xff);	spi.write(0xff);	
        spi.write(0x4e);	spi.write(0x41);	spi.write(0x02);	spi.write(0x00);	spi.write(0x00);	spi.write(0x00);	
        spi.write(0x4c);	spi.write(0x41);	spi.write(0x02);	spi.write(0x00);	spi.write(0x00);	spi.write(0x00);	
        spi.write(0x4a);	spi.write(0x41);	spi.write(0x02);	spi.write(0x00);	spi.write(0x1f);	spi.write(0x00);	
        spi.write(0x48);	spi.write(0x41);	spi.write(0x02);	spi.write(0x00);	spi.write(0xff);	spi.write(0xff);	
        spi.write(0x56);	spi.write(0x41);	spi.write(0x02);	spi.write(0x00);	spi.write(0x00);	spi.write(0x00);	
        spi.write(0x54);	spi.write(0x41);	spi.write(0x02);	spi.write(0x00);	spi.write(0x00);	spi.write(0x00);	
        spi.write(0x52);	spi.write(0x41);	spi.write(0x02);	spi.write(0x00);	spi.write(0x1f);	spi.write(0x00);	
        spi.write(0x50);	spi.write(0x41);	spi.write(0x02);	spi.write(0x00);	spi.write(0xff);	spi.write(0xff);	
        spi.write(0x5e);	spi.write(0x41);	spi.write(0x02);	spi.write(0x00);	spi.write(0x00);	spi.write(0x00);	
        spi.write(0x5c);	spi.write(0x41);	spi.write(0x02);	spi.write(0x00);	spi.write(0x00);	spi.write(0x00);	
        spi.write(0x5a);	spi.write(0x41);	spi.write(0x02);	spi.write(0x00);	spi.write(0x1f);	spi.write(0x00);	
        spi.write(0x58);	spi.write(0x41);	spi.write(0x02);	spi.write(0x00);	spi.write(0xff);	spi.write(0xff);	
        spi.write(0x66);	spi.write(0x41);	spi.write(0x02);	spi.write(0x00);	spi.write(0x00);	spi.write(0x00);	
        spi.write(0x64);	spi.write(0x41);	spi.write(0x02);	spi.write(0x00);	spi.write(0x00);	spi.write(0x00);	
        spi.write(0x62);	spi.write(0x41);	spi.write(0x02);	spi.write(0x00);	spi.write(0x1f);	spi.write(0x00);	
        spi.write(0x60);	spi.write(0x41);	spi.write(0x02);	spi.write(0x00);	spi.write(0xff);	spi.write(0xff);	
        spi.write(0x6e);	spi.write(0x41);	spi.write(0x02);	spi.write(0x00);	spi.write(0x00);	spi.write(0x00);	
        spi.write(0x6c);	spi.write(0x41);	spi.write(0x02);	spi.write(0x00);	spi.write(0x00);	spi.write(0x00);	
        spi.write(0x6a);	spi.write(0x41);	spi.write(0x02);	spi.write(0x00);	spi.write(0x1f);	spi.write(0x00);	
        spi.write(0x68);	spi.write(0x41);	spi.write(0x02);	spi.write(0x00);	spi.write(0xff);	spi.write(0xff);	
        spi.write(0x76);	spi.write(0x41);	spi.write(0x02);	spi.write(0x00);	spi.write(0x00);	spi.write(0x00);	
        spi.write(0x74);	spi.write(0x41);	spi.write(0x02);	spi.write(0x00);	spi.write(0x00);	spi.write(0x00);	
        spi.write(0x72);	spi.write(0x41);	spi.write(0x02);	spi.write(0x00);	spi.write(0x1f);	spi.write(0x00);	
        spi.write(0x70);	spi.write(0x41);	spi.write(0x02);	spi.write(0x00);	spi.write(0xff);	spi.write(0xff);	
        spi.write(0x7e);	spi.write(0x41);	spi.write(0x02);	spi.write(0x00);	spi.write(0x00);	spi.write(0x00);	
        spi.write(0x7c);	spi.write(0x41);	spi.write(0x02);	spi.write(0x00);	spi.write(0x00);	spi.write(0x00);	
        spi.write(0x7a);	spi.write(0x41);	spi.write(0x02);	spi.write(0x00);	spi.write(0x1f);	spi.write(0x00);	
        spi.write(0x78);	spi.write(0x41);	spi.write(0x02);	spi.write(0x00);	spi.write(0xff);	spi.write(0xff);	
        spi.write(0x86);	spi.write(0x41);	spi.write(0x02);	spi.write(0x00);	spi.write(0x00);	spi.write(0x00);	
        spi.write(0x84);	spi.write(0x41);	spi.write(0x02);	spi.write(0x00);	spi.write(0x00);	spi.write(0x00);	
        spi.write(0x82);	spi.write(0x41);	spi.write(0x02);	spi.write(0x00);	spi.write(0x1f);	spi.write(0x00);	
        spi.write(0x80);	spi.write(0x41);	spi.write(0x02);	spi.write(0x00);	spi.write(0xff);	spi.write(0xff);	
        spi.write(0x8e);	spi.write(0x41);	spi.write(0x02);	spi.write(0x00);	spi.write(0x00);	spi.write(0x00);	
        spi.write(0x8c);	spi.write(0x41);	spi.write(0x02);	spi.write(0x00);	spi.write(0x00);	spi.write(0x00);	
        spi.write(0x8a);	spi.write(0x41);	spi.write(0x02);	spi.write(0x00);	spi.write(0x1f);	spi.write(0x00);	
        spi.write(0x88);	spi.write(0x41);	spi.write(0x02);	spi.write(0x00);	spi.write(0xff);	spi.write(0xff);	
        spi.write(0x96);	spi.write(0x41);	spi.write(0x02);	spi.write(0x00);	spi.write(0x00);	spi.write(0x00);	
        spi.write(0x94);	spi.write(0x41);	spi.write(0x02);	spi.write(0x00);	spi.write(0x00);	spi.write(0x00);	
        spi.write(0x92);	spi.write(0x41);	spi.write(0x02);	spi.write(0x00);	spi.write(0x1f);	spi.write(0x00);	
        spi.write(0x90);	spi.write(0x41);	spi.write(0x02);	spi.write(0x00);	spi.write(0xff);	spi.write(0xff);	
        spi.write(0x9e);	spi.write(0x41);	spi.write(0x02);	spi.write(0x00);	spi.write(0x00);	spi.write(0x00);	
        spi.write(0x9c);	spi.write(0x41);	spi.write(0x02);	spi.write(0x00);	spi.write(0x00);	spi.write(0x00);	
        spi.write(0x9a);	spi.write(0x41);	spi.write(0x02);	spi.write(0x00);	spi.write(0x1f);	spi.write(0x00);	
        spi.write(0x98);	spi.write(0x41);	spi.write(0x02);	spi.write(0x00);	spi.write(0xff);	spi.write(0xff);	
        spi.write(0xa6);	spi.write(0x41);	spi.write(0x02);	spi.write(0x00);	spi.write(0x00);	spi.write(0x00);	
        spi.write(0xa4);	spi.write(0x41);	spi.write(0x02);	spi.write(0x00);	spi.write(0x00);	spi.write(0x00);	
        spi.write(0xa2);	spi.write(0x41);	spi.write(0x02);	spi.write(0x00);	spi.write(0x1f);	spi.write(0x00);	
        spi.write(0xa0);	spi.write(0x41);	spi.write(0x02);	spi.write(0x00);	spi.write(0xff);	spi.write(0xff);	
        spi.write(0xae);	spi.write(0x41);	spi.write(0x02);	spi.write(0x00);	spi.write(0x00);	spi.write(0x00);	
        spi.write(0xac);	spi.write(0x41);	spi.write(0x02);	spi.write(0x00);	spi.write(0x00);	spi.write(0x00);	
        spi.write(0xaa);	spi.write(0x41);	spi.write(0x02);	spi.write(0x00);	spi.write(0x1f);	spi.write(0x00);	
        spi.write(0xa8);	spi.write(0x41);	spi.write(0x02);	spi.write(0x00);	spi.write(0xff);	spi.write(0xff);	
        spi.write(0xb6);	spi.write(0x41);	spi.write(0x02);	spi.write(0x00);	spi.write(0x00);	spi.write(0x00);	
        spi.write(0xb4);	spi.write(0x41);	spi.write(0x02);	spi.write(0x00);	spi.write(0x00);	spi.write(0x00);	
        spi.write(0xb2);	spi.write(0x41);	spi.write(0x02);	spi.write(0x00);	spi.write(0x1f);	spi.write(0x00);	
        spi.write(0xb0);	spi.write(0x41);	spi.write(0x02);	spi.write(0x00);	spi.write(0xff);	spi.write(0xff);	
        spi.write(0x06);	spi.write(0x42);	spi.write(0x02);	spi.write(0x00);	spi.write(0x00);	spi.write(0x40);	
        spi.write(0x04);	spi.write(0x42);	spi.write(0x02);	spi.write(0x00);	spi.write(0x0f);	spi.write(0x36);	
        spi.write(0x02);	spi.write(0x42);	spi.write(0x02);	spi.write(0x00);	spi.write(0x1f);	spi.write(0x80);	
        spi.write(0x00);	spi.write(0x42);	spi.write(0x02);	spi.write(0x00);	spi.write(0xff);	spi.write(0xff);	
        spi.write(0x0e);	spi.write(0x42);	spi.write(0x02);	spi.write(0x00);	spi.write(0x00);	spi.write(0x00);	
        spi.write(0x0c);	spi.write(0x42);	spi.write(0x02);	spi.write(0x00);	spi.write(0x00);	spi.write(0x00);	
        spi.write(0x0a);	spi.write(0x42);	spi.write(0x02);	spi.write(0x00);	spi.write(0x1f);	spi.write(0x00);	
        spi.write(0x08);	spi.write(0x42);	spi.write(0x02);	spi.write(0x00);	spi.write(0xff);	spi.write(0xff);	
        spi.write(0x16);	spi.write(0x42);	spi.write(0x02);	spi.write(0x00);	spi.write(0x00);	spi.write(0x00);	
        spi.write(0x14);	spi.write(0x42);	spi.write(0x02);	spi.write(0x00);	spi.write(0x00);	spi.write(0x00);	
        spi.write(0x12);	spi.write(0x42);	spi.write(0x02);	spi.write(0x00);	spi.write(0x1f);	spi.write(0x00);	
        spi.write(0x10);	spi.write(0x42);	spi.write(0x02);	spi.write(0x00);	spi.write(0xff);	spi.write(0xff);	
        spi.write(0x1e);	spi.write(0x42);	spi.write(0x02);	spi.write(0x00);	spi.write(0x00);	spi.write(0x00);	
        spi.write(0x1c);	spi.write(0x42);	spi.write(0x02);	spi.write(0x00);	spi.write(0x00);	spi.write(0x00);	
        spi.write(0x1a);	spi.write(0x42);	spi.write(0x02);	spi.write(0x00);	spi.write(0x1f);	spi.write(0x00);	
        spi.write(0x18);	spi.write(0x42);	spi.write(0x02);	spi.write(0x00);	spi.write(0xff);	spi.write(0xaf);	
        spi.write(0x26);	spi.write(0x42);	spi.write(0x02);	spi.write(0x00);	spi.write(0x00);	spi.write(0x40);	
        spi.write(0x24);	spi.write(0x42);	spi.write(0x02);	spi.write(0x00);	spi.write(0x08);	spi.write(0x00);	
        spi.write(0x22);	spi.write(0x42);	spi.write(0x02);	spi.write(0x00);	spi.write(0x1f);	spi.write(0x40);	
        spi.write(0x20);	spi.write(0x42);	spi.write(0x02);	spi.write(0x00);	spi.write(0xfc);	spi.write(0xff);	
        spi.write(0x2e);	spi.write(0x42);	spi.write(0x02);	spi.write(0x00);	spi.write(0x00);	spi.write(0x00);	
        spi.write(0x2c);	spi.write(0x42);	spi.write(0x02);	spi.write(0x00);	spi.write(0x00);	spi.write(0x00);	
        spi.write(0x2a);	spi.write(0x42);	spi.write(0x02);	spi.write(0x00);	spi.write(0x1f);	spi.write(0x00);	
        spi.write(0x28);	spi.write(0x42);	spi.write(0x02);	spi.write(0x00);	spi.write(0xff);	spi.write(0xff);	
        spi.write(0x36);	spi.write(0x42);	spi.write(0x02);	spi.write(0x00);	spi.write(0x00);	spi.write(0x00);	
        spi.write(0x34);	spi.write(0x42);	spi.write(0x02);	spi.write(0x00);	spi.write(0x00);	spi.write(0x00);	
        spi.write(0x32);	spi.write(0x42);	spi.write(0x02);	spi.write(0x00);	spi.write(0x1f);	spi.write(0x00);	
        spi.write(0x30);	spi.write(0x42);	spi.write(0x02);	spi.write(0x00);	spi.write(0xff);	spi.write(0xff);	
        spi.write(0x3e);	spi.write(0x42);	spi.write(0x02);	spi.write(0x00);	spi.write(0x00);	spi.write(0x00);	
        spi.write(0x3c);	spi.write(0x42);	spi.write(0x02);	spi.write(0x00);	spi.write(0x00);	spi.write(0x00);	
        spi.write(0x3a);	spi.write(0x42);	spi.write(0x02);	spi.write(0x00);	spi.write(0x1f);	spi.write(0x00);	
        spi.write(0x38);	spi.write(0x42);	spi.write(0x02);	spi.write(0x00);	spi.write(0xff);	spi.write(0xff);	
        spi.write(0x46);	spi.write(0x42);	spi.write(0x02);	spi.write(0x00);	spi.write(0x00);	spi.write(0x00);	
        spi.write(0x44);	spi.write(0x42);	spi.write(0x02);	spi.write(0x00);	spi.write(0x00);	spi.write(0x00);	
        spi.write(0x42);	spi.write(0x42);	spi.write(0x02);	spi.write(0x00);	spi.write(0x1f);	spi.write(0x00);	
        spi.write(0x40);	spi.write(0x42);	spi.write(0x02);	spi.write(0x00);	spi.write(0xff);	spi.write(0xff);	
        spi.write(0x4e);	spi.write(0x42);	spi.write(0x02);	spi.write(0x00);	spi.write(0x00);	spi.write(0x00);	
        spi.write(0x4c);	spi.write(0x42);	spi.write(0x02);	spi.write(0x00);	spi.write(0x00);	spi.write(0x00);	
        spi.write(0x4a);	spi.write(0x42);	spi.write(0x02);	spi.write(0x00);	spi.write(0x1f);	spi.write(0x00);	
        spi.write(0x48);	spi.write(0x42);	spi.write(0x02);	spi.write(0x00);	spi.write(0xff);	spi.write(0xff);	
        spi.write(0x56);	spi.write(0x42);	spi.write(0x02);	spi.write(0x00);	spi.write(0x00);	spi.write(0x00);	
        spi.write(0x54);	spi.write(0x42);	spi.write(0x02);	spi.write(0x00);	spi.write(0x00);	spi.write(0x00);	
        spi.write(0x52);	spi.write(0x42);	spi.write(0x02);	spi.write(0x00);	spi.write(0x1f);	spi.write(0x00);	
        spi.write(0x50);	spi.write(0x42);	spi.write(0x02);	spi.write(0x00);	spi.write(0xff);	spi.write(0xff);	
        spi.write(0x5e);	spi.write(0x42);	spi.write(0x02);	spi.write(0x00);	spi.write(0x00);	spi.write(0x00);	
        spi.write(0x5c);	spi.write(0x42);	spi.write(0x02);	spi.write(0x00);	spi.write(0x00);	spi.write(0x00);	
        spi.write(0x5a);	spi.write(0x42);	spi.write(0x02);	spi.write(0x00);	spi.write(0x1f);	spi.write(0x00);	
        spi.write(0x58);	spi.write(0x42);	spi.write(0x02);	spi.write(0x00);	spi.write(0xff);	spi.write(0xff);	
        spi.write(0x66);	spi.write(0x42);	spi.write(0x02);	spi.write(0x00);	spi.write(0x00);	spi.write(0x00);	
        spi.write(0x64);	spi.write(0x42);	spi.write(0x02);	spi.write(0x00);	spi.write(0x00);	spi.write(0x00);	
        spi.write(0x62);	spi.write(0x42);	spi.write(0x02);	spi.write(0x00);	spi.write(0x1f);	spi.write(0x00);	
        spi.write(0x60);	spi.write(0x42);	spi.write(0x02);	spi.write(0x00);	spi.write(0xff);	spi.write(0xff);	
        spi.write(0x6e);	spi.write(0x42);	spi.write(0x02);	spi.write(0x00);	spi.write(0x00);	spi.write(0x00);	
        spi.write(0x6c);	spi.write(0x42);	spi.write(0x02);	spi.write(0x00);	spi.write(0x00);	spi.write(0x00);	
        spi.write(0x6a);	spi.write(0x42);	spi.write(0x02);	spi.write(0x00);	spi.write(0x1f);	spi.write(0x00);	
        spi.write(0x68);	spi.write(0x42);	spi.write(0x02);	spi.write(0x00);	spi.write(0xff);	spi.write(0xff);	
        spi.write(0x76);	spi.write(0x42);	spi.write(0x02);	spi.write(0x00);	spi.write(0x00);	spi.write(0x00);	
        spi.write(0x74);	spi.write(0x42);	spi.write(0x02);	spi.write(0x00);	spi.write(0x00);	spi.write(0x00);	
        spi.write(0x72);	spi.write(0x42);	spi.write(0x02);	spi.write(0x00);	spi.write(0x1f);	spi.write(0x00);	
        spi.write(0x70);	spi.write(0x42);	spi.write(0x02);	spi.write(0x00);	spi.write(0xff);	spi.write(0xff);	
        spi.write(0x7e);	spi.write(0x42);	spi.write(0x02);	spi.write(0x00);	spi.write(0x00);	spi.write(0x00);	
        spi.write(0x7c);	spi.write(0x42);	spi.write(0x02);	spi.write(0x00);	spi.write(0x00);	spi.write(0x00);	
        spi.write(0x7a);	spi.write(0x42);	spi.write(0x02);	spi.write(0x00);	spi.write(0x1f);	spi.write(0x00);	
        spi.write(0x78);	spi.write(0x42);	spi.write(0x02);	spi.write(0x00);	spi.write(0xff);	spi.write(0xff);	
        spi.write(0x86);	spi.write(0x42);	spi.write(0x02);	spi.write(0x00);	spi.write(0x00);	spi.write(0x00);	
        spi.write(0x84);	spi.write(0x42);	spi.write(0x02);	spi.write(0x00);	spi.write(0x00);	spi.write(0x00);	
        spi.write(0x82);	spi.write(0x42);	spi.write(0x02);	spi.write(0x00);	spi.write(0x1f);	spi.write(0x00);	
        spi.write(0x80);	spi.write(0x42);	spi.write(0x02);	spi.write(0x00);	spi.write(0xff);	spi.write(0xff);	
        spi.write(0x8e);	spi.write(0x42);	spi.write(0x02);	spi.write(0x00);	spi.write(0x00);	spi.write(0x00);	
        spi.write(0x8c);	spi.write(0x42);	spi.write(0x02);	spi.write(0x00);	spi.write(0x00);	spi.write(0x00);	
        spi.write(0x8a);	spi.write(0x42);	spi.write(0x02);	spi.write(0x00);	spi.write(0x1f);	spi.write(0x00);	
        spi.write(0x88);	spi.write(0x42);	spi.write(0x02);	spi.write(0x00);	spi.write(0xff);	spi.write(0xff);	
        spi.write(0x96);	spi.write(0x42);	spi.write(0x02);	spi.write(0x00);	spi.write(0x00);	spi.write(0x00);	
        spi.write(0x94);	spi.write(0x42);	spi.write(0x02);	spi.write(0x00);	spi.write(0x00);	spi.write(0x00);	
        spi.write(0x92);	spi.write(0x42);	spi.write(0x02);	spi.write(0x00);	spi.write(0x1f);	spi.write(0x00);	
        spi.write(0x90);	spi.write(0x42);	spi.write(0x02);	spi.write(0x00);	spi.write(0xff);	spi.write(0xff);	
        spi.write(0x9e);	spi.write(0x42);	spi.write(0x02);	spi.write(0x00);	spi.write(0x00);	spi.write(0x00);	
        spi.write(0x9c);	spi.write(0x42);	spi.write(0x02);	spi.write(0x00);	spi.write(0x00);	spi.write(0x00);	
        spi.write(0x9a);	spi.write(0x42);	spi.write(0x02);	spi.write(0x00);	spi.write(0x1f);	spi.write(0x00);	
        spi.write(0x98);	spi.write(0x42);	spi.write(0x02);	spi.write(0x00);	spi.write(0xff);	spi.write(0xff);	
        spi.write(0xa6);	spi.write(0x42);	spi.write(0x02);	spi.write(0x00);	spi.write(0x00);	spi.write(0x00);	
        spi.write(0xa4);	spi.write(0x42);	spi.write(0x02);	spi.write(0x00);	spi.write(0x00);	spi.write(0x00);	
        spi.write(0xa2);	spi.write(0x42);	spi.write(0x02);	spi.write(0x00);	spi.write(0x1f);	spi.write(0x00);	
        spi.write(0xa0);	spi.write(0x42);	spi.write(0x02);	spi.write(0x00);	spi.write(0xff);	spi.write(0xff);	
        spi.write(0xae);	spi.write(0x42);	spi.write(0x02);	spi.write(0x00);	spi.write(0x00);	spi.write(0x00);	
        spi.write(0xac);	spi.write(0x42);	spi.write(0x02);	spi.write(0x00);	spi.write(0x00);	spi.write(0x00);	
        spi.write(0xaa);	spi.write(0x42);	spi.write(0x02);	spi.write(0x00);	spi.write(0x1f);	spi.write(0x00);	
        spi.write(0xa8);	spi.write(0x42);	spi.write(0x02);	spi.write(0x00);	spi.write(0xff);	spi.write(0xff);	
        spi.write(0xb6);	spi.write(0x42);	spi.write(0x02);	spi.write(0x00);	spi.write(0x00);	spi.write(0x00);	
        spi.write(0xb4);	spi.write(0x42);	spi.write(0x02);	spi.write(0x00);	spi.write(0x00);	spi.write(0x00);	
        spi.write(0xb2);	spi.write(0x42);	spi.write(0x02);	spi.write(0x00);	spi.write(0x1f);	spi.write(0x00);	
        spi.write(0xb0);	spi.write(0x42);	spi.write(0x02);	spi.write(0x00);	spi.write(0xff);	spi.write(0xff);	
        spi.write(0x06);	spi.write(0x43);	spi.write(0x02);	spi.write(0x00);	spi.write(0x00);	spi.write(0x40);	
        spi.write(0x04);	spi.write(0x43);	spi.write(0x02);	spi.write(0x00);	spi.write(0x0f);	spi.write(0x36);	
        spi.write(0x02);	spi.write(0x43);	spi.write(0x02);	spi.write(0x00);	spi.write(0x1f);	spi.write(0x80);	
        spi.write(0x00);	spi.write(0x43);	spi.write(0x02);	spi.write(0x00);	spi.write(0xff);	spi.write(0xff);	
        spi.write(0x0e);	spi.write(0x43);	spi.write(0x02);	spi.write(0x00);	spi.write(0x00);	spi.write(0x00);	
        spi.write(0x0c);	spi.write(0x43);	spi.write(0x02);	spi.write(0x00);	spi.write(0x00);	spi.write(0x00);	
        spi.write(0x0a);	spi.write(0x43);	spi.write(0x02);	spi.write(0x00);	spi.write(0x1f);	spi.write(0x00);	
        spi.write(0x08);	spi.write(0x43);	spi.write(0x02);	spi.write(0x00);	spi.write(0xff);	spi.write(0xff);	
        spi.write(0x16);	spi.write(0x43);	spi.write(0x02);	spi.write(0x00);	spi.write(0x00);	spi.write(0x00);	
        spi.write(0x14);	spi.write(0x43);	spi.write(0x02);	spi.write(0x00);	spi.write(0x00);	spi.write(0x00);	
        spi.write(0x12);	spi.write(0x43);	spi.write(0x02);	spi.write(0x00);	spi.write(0x1f);	spi.write(0x00);	
        spi.write(0x10);	spi.write(0x43);	spi.write(0x02);	spi.write(0x00);	spi.write(0xff);	spi.write(0xff);	
        spi.write(0x1e);	spi.write(0x43);	spi.write(0x02);	spi.write(0x00);	spi.write(0x00);	spi.write(0x00);	
        spi.write(0x1c);	spi.write(0x43);	spi.write(0x02);	spi.write(0x00);	spi.write(0x00);	spi.write(0x00);	
        spi.write(0x1a);	spi.write(0x43);	spi.write(0x02);	spi.write(0x00);	spi.write(0x1f);	spi.write(0x00);	
        spi.write(0x18);	spi.write(0x43);	spi.write(0x02);	spi.write(0x00);	spi.write(0xff);	spi.write(0xff);	
        spi.write(0x26);	spi.write(0x43);	spi.write(0x02);	spi.write(0x00);	spi.write(0x00);	spi.write(0x00);	
        spi.write(0x24);	spi.write(0x43);	spi.write(0x02);	spi.write(0x00);	spi.write(0x00);	spi.write(0x00);	
        spi.write(0x22);	spi.write(0x43);	spi.write(0x02);	spi.write(0x00);	spi.write(0x1f);	spi.write(0x00);	
        spi.write(0x20);	spi.write(0x43);	spi.write(0x02);	spi.write(0x00);	spi.write(0xff);	spi.write(0xaf);	
        spi.write(0x2e);	spi.write(0x43);	spi.write(0x02);	spi.write(0x00);	spi.write(0x00);	spi.write(0x40);	
        spi.write(0x2c);	spi.write(0x43);	spi.write(0x02);	spi.write(0x00);	spi.write(0x08);	spi.write(0x00);	
        spi.write(0x2a);	spi.write(0x43);	spi.write(0x02);	spi.write(0x00);	spi.write(0x1f);	spi.write(0x40);	
        spi.write(0x28);	spi.write(0x43);	spi.write(0x02);	spi.write(0x00);	spi.write(0xe7);	spi.write(0xff);	
        spi.write(0x36);	spi.write(0x43);	spi.write(0x02);	spi.write(0x00);	spi.write(0x00);	spi.write(0x00);	
        spi.write(0x34);	spi.write(0x43);	spi.write(0x02);	spi.write(0x00);	spi.write(0x00);	spi.write(0x00);	
        spi.write(0x32);	spi.write(0x43);	spi.write(0x02);	spi.write(0x00);	spi.write(0x1f);	spi.write(0x00);	
        spi.write(0x30);	spi.write(0x43);	spi.write(0x02);	spi.write(0x00);	spi.write(0xff);	spi.write(0xff);	
        spi.write(0x3e);	spi.write(0x43);	spi.write(0x02);	spi.write(0x00);	spi.write(0x00);	spi.write(0x00);	
        spi.write(0x3c);	spi.write(0x43);	spi.write(0x02);	spi.write(0x00);	spi.write(0x00);	spi.write(0x00);	
        spi.write(0x3a);	spi.write(0x43);	spi.write(0x02);	spi.write(0x00);	spi.write(0x1f);	spi.write(0x00);	
        spi.write(0x38);	spi.write(0x43);	spi.write(0x02);	spi.write(0x00);	spi.write(0xff);	spi.write(0xff);	
        spi.write(0x46);	spi.write(0x43);	spi.write(0x02);	spi.write(0x00);	spi.write(0x00);	spi.write(0x00);	
        spi.write(0x44);	spi.write(0x43);	spi.write(0x02);	spi.write(0x00);	spi.write(0x00);	spi.write(0x00);	
        spi.write(0x42);	spi.write(0x43);	spi.write(0x02);	spi.write(0x00);	spi.write(0x1f);	spi.write(0x00);	
        spi.write(0x40);	spi.write(0x43);	spi.write(0x02);	spi.write(0x00);	spi.write(0xff);	spi.write(0xff);	
        spi.write(0x4e);	spi.write(0x43);	spi.write(0x02);	spi.write(0x00);	spi.write(0x00);	spi.write(0x00);	
        spi.write(0x4c);	spi.write(0x43);	spi.write(0x02);	spi.write(0x00);	spi.write(0x00);	spi.write(0x00);	
        spi.write(0x4a);	spi.write(0x43);	spi.write(0x02);	spi.write(0x00);	spi.write(0x1f);	spi.write(0x00);	
        spi.write(0x48);	spi.write(0x43);	spi.write(0x02);	spi.write(0x00);	spi.write(0xff);	spi.write(0xff);	
        spi.write(0x56);	spi.write(0x43);	spi.write(0x02);	spi.write(0x00);	spi.write(0x00);	spi.write(0x00);	
        spi.write(0x54);	spi.write(0x43);	spi.write(0x02);	spi.write(0x00);	spi.write(0x00);	spi.write(0x00);	
        spi.write(0x52);	spi.write(0x43);	spi.write(0x02);	spi.write(0x00);	spi.write(0x1f);	spi.write(0x00);	
        spi.write(0x50);	spi.write(0x43);	spi.write(0x02);	spi.write(0x00);	spi.write(0xff);	spi.write(0xff);	
        spi.write(0x5e);	spi.write(0x43);	spi.write(0x02);	spi.write(0x00);	spi.write(0x00);	spi.write(0x00);	
        spi.write(0x5c);	spi.write(0x43);	spi.write(0x02);	spi.write(0x00);	spi.write(0x00);	spi.write(0x00);	
        spi.write(0x5a);	spi.write(0x43);	spi.write(0x02);	spi.write(0x00);	spi.write(0x1f);	spi.write(0x00);	
        spi.write(0x58);	spi.write(0x43);	spi.write(0x02);	spi.write(0x00);	spi.write(0xff);	spi.write(0xff);	
        spi.write(0x66);	spi.write(0x43);	spi.write(0x02);	spi.write(0x00);	spi.write(0x00);	spi.write(0x00);	
        spi.write(0x64);	spi.write(0x43);	spi.write(0x02);	spi.write(0x00);	spi.write(0x00);	spi.write(0x00);	
        spi.write(0x62);	spi.write(0x43);	spi.write(0x02);	spi.write(0x00);	spi.write(0x1f);	spi.write(0x00);	
        spi.write(0x60);	spi.write(0x43);	spi.write(0x02);	spi.write(0x00);	spi.write(0xff);	spi.write(0xff);	
        spi.write(0x6e);	spi.write(0x43);	spi.write(0x02);	spi.write(0x00);	spi.write(0x00);	spi.write(0x00);	
        spi.write(0x6c);	spi.write(0x43);	spi.write(0x02);	spi.write(0x00);	spi.write(0x00);	spi.write(0x00);	
        spi.write(0x6a);	spi.write(0x43);	spi.write(0x02);	spi.write(0x00);	spi.write(0x1f);	spi.write(0x00);	
        spi.write(0x68);	spi.write(0x43);	spi.write(0x02);	spi.write(0x00);	spi.write(0xff);	spi.write(0xff);	
        spi.write(0x76);	spi.write(0x43);	spi.write(0x02);	spi.write(0x00);	spi.write(0x00);	spi.write(0x00);	
        spi.write(0x74);	spi.write(0x43);	spi.write(0x02);	spi.write(0x00);	spi.write(0x00);	spi.write(0x00);	
        spi.write(0x72);	spi.write(0x43);	spi.write(0x02);	spi.write(0x00);	spi.write(0x1f);	spi.write(0x00);	
        spi.write(0x70);	spi.write(0x43);	spi.write(0x02);	spi.write(0x00);	spi.write(0xff);	spi.write(0xff);	
        spi.write(0x7e);	spi.write(0x43);	spi.write(0x02);	spi.write(0x00);	spi.write(0x00);	spi.write(0x00);	
        spi.write(0x7c);	spi.write(0x43);	spi.write(0x02);	spi.write(0x00);	spi.write(0x00);	spi.write(0x00);	
        spi.write(0x7a);	spi.write(0x43);	spi.write(0x02);	spi.write(0x00);	spi.write(0x1f);	spi.write(0x00);	
        spi.write(0x78);	spi.write(0x43);	spi.write(0x02);	spi.write(0x00);	spi.write(0xff);	spi.write(0xff);	
        spi.write(0x86);	spi.write(0x43);	spi.write(0x02);	spi.write(0x00);	spi.write(0x00);	spi.write(0x00);	
        spi.write(0x84);	spi.write(0x43);	spi.write(0x02);	spi.write(0x00);	spi.write(0x00);	spi.write(0x00);	
        spi.write(0x82);	spi.write(0x43);	spi.write(0x02);	spi.write(0x00);	spi.write(0x1f);	spi.write(0x00);	
        spi.write(0x80);	spi.write(0x43);	spi.write(0x02);	spi.write(0x00);	spi.write(0xff);	spi.write(0xff);	
        spi.write(0x8e);	spi.write(0x43);	spi.write(0x02);	spi.write(0x00);	spi.write(0x00);	spi.write(0x00);	
        spi.write(0x8c);	spi.write(0x43);	spi.write(0x02);	spi.write(0x00);	spi.write(0x00);	spi.write(0x00);	
        spi.write(0x8a);	spi.write(0x43);	spi.write(0x02);	spi.write(0x00);	spi.write(0x1f);	spi.write(0x00);	
        spi.write(0x88);	spi.write(0x43);	spi.write(0x02);	spi.write(0x00);	spi.write(0xff);	spi.write(0xff);	
        spi.write(0x96);	spi.write(0x43);	spi.write(0x02);	spi.write(0x00);	spi.write(0x00);	spi.write(0x00);	
        spi.write(0x94);	spi.write(0x43);	spi.write(0x02);	spi.write(0x00);	spi.write(0x00);	spi.write(0x00);	
        spi.write(0x92);	spi.write(0x43);	spi.write(0x02);	spi.write(0x00);	spi.write(0x1f);	spi.write(0x00);	
        spi.write(0x90);	spi.write(0x43);	spi.write(0x02);	spi.write(0x00);	spi.write(0xff);	spi.write(0xff);	
        spi.write(0x9e);	spi.write(0x43);	spi.write(0x02);	spi.write(0x00);	spi.write(0x00);	spi.write(0x00);	
        spi.write(0x9c);	spi.write(0x43);	spi.write(0x02);	spi.write(0x00);	spi.write(0x00);	spi.write(0x00);	
        spi.write(0x9a);	spi.write(0x43);	spi.write(0x02);	spi.write(0x00);	spi.write(0x1f);	spi.write(0x00);	
        spi.write(0x98);	spi.write(0x43);	spi.write(0x02);	spi.write(0x00);	spi.write(0xff);	spi.write(0xff);	
        spi.write(0xa6);	spi.write(0x43);	spi.write(0x02);	spi.write(0x00);	spi.write(0x00);	spi.write(0x00);	
        spi.write(0xa4);	spi.write(0x43);	spi.write(0x02);	spi.write(0x00);	spi.write(0x00);	spi.write(0x00);	
        spi.write(0xa2);	spi.write(0x43);	spi.write(0x02);	spi.write(0x00);	spi.write(0x1f);	spi.write(0x00);	
        spi.write(0xa0);	spi.write(0x43);	spi.write(0x02);	spi.write(0x00);	spi.write(0xff);	spi.write(0xff);	
        spi.write(0xae);	spi.write(0x43);	spi.write(0x02);	spi.write(0x00);	spi.write(0x00);	spi.write(0x00);	
        spi.write(0xac);	spi.write(0x43);	spi.write(0x02);	spi.write(0x00);	spi.write(0x00);	spi.write(0x00);	
        spi.write(0xaa);	spi.write(0x43);	spi.write(0x02);	spi.write(0x00);	spi.write(0x1f);	spi.write(0x00);	
        spi.write(0xa8);	spi.write(0x43);	spi.write(0x02);	spi.write(0x00);	spi.write(0xff);	spi.write(0xff);	
        spi.write(0xb6);	spi.write(0x43);	spi.write(0x02);	spi.write(0x00);	spi.write(0x00);	spi.write(0x00);	
        spi.write(0xb4);	spi.write(0x43);	spi.write(0x02);	spi.write(0x00);	spi.write(0x00);	spi.write(0x00);	
        spi.write(0xb2);	spi.write(0x43);	spi.write(0x02);	spi.write(0x00);	spi.write(0x1f);	spi.write(0x00);	
        spi.write(0xb0);	spi.write(0x43);	spi.write(0x02);	spi.write(0x00);	spi.write(0xff);	spi.write(0xff);	
        spi.write(0x06);	spi.write(0x44);	spi.write(0x02);	spi.write(0x00);	spi.write(0x00);	spi.write(0x40);	
        spi.write(0x04);	spi.write(0x44);	spi.write(0x02);	spi.write(0x00);	spi.write(0x0f);	spi.write(0x36);	
        spi.write(0x02);	spi.write(0x44);	spi.write(0x02);	spi.write(0x00);	spi.write(0x1f);	spi.write(0x80);	
        spi.write(0x00);	spi.write(0x44);	spi.write(0x02);	spi.write(0x00);	spi.write(0xff);	spi.write(0xff);	
        spi.write(0x0e);	spi.write(0x44);	spi.write(0x02);	spi.write(0x00);	spi.write(0x00);	spi.write(0x00);	
        spi.write(0x0c);	spi.write(0x44);	spi.write(0x02);	spi.write(0x00);	spi.write(0x00);	spi.write(0x00);	
        spi.write(0x0a);	spi.write(0x44);	spi.write(0x02);	spi.write(0x00);	spi.write(0x1f);	spi.write(0x00);	
        spi.write(0x08);	spi.write(0x44);	spi.write(0x02);	spi.write(0x00);	spi.write(0xff);	spi.write(0xff);	
        spi.write(0x16);	spi.write(0x44);	spi.write(0x02);	spi.write(0x00);	spi.write(0x00);	spi.write(0x00);	
        spi.write(0x14);	spi.write(0x44);	spi.write(0x02);	spi.write(0x00);	spi.write(0x00);	spi.write(0x00);	
        spi.write(0x12);	spi.write(0x44);	spi.write(0x02);	spi.write(0x00);	spi.write(0x1f);	spi.write(0x00);	
        spi.write(0x10);	spi.write(0x44);	spi.write(0x02);	spi.write(0x00);	spi.write(0xff);	spi.write(0xff);	
        spi.write(0x1e);	spi.write(0x44);	spi.write(0x02);	spi.write(0x00);	spi.write(0x00);	spi.write(0x00);	
        spi.write(0x1c);	spi.write(0x44);	spi.write(0x02);	spi.write(0x00);	spi.write(0x00);	spi.write(0x00);	
        spi.write(0x1a);	spi.write(0x44);	spi.write(0x02);	spi.write(0x00);	spi.write(0x1f);	spi.write(0x00);	
        spi.write(0x18);	spi.write(0x44);	spi.write(0x02);	spi.write(0x00);	spi.write(0xff);	spi.write(0xff);	
        spi.write(0x26);	spi.write(0x44);	spi.write(0x02);	spi.write(0x00);	spi.write(0x00);	spi.write(0x00);	
        spi.write(0x24);	spi.write(0x44);	spi.write(0x02);	spi.write(0x00);	spi.write(0x00);	spi.write(0x00);	
        spi.write(0x22);	spi.write(0x44);	spi.write(0x02);	spi.write(0x00);	spi.write(0x1f);	spi.write(0x00);	
        spi.write(0x20);	spi.write(0x44);	spi.write(0x02);	spi.write(0x00);	spi.write(0xff);	spi.write(0xff);	
        spi.write(0x2e);	spi.write(0x44);	spi.write(0x02);	spi.write(0x00);	spi.write(0x00);	spi.write(0x00);	
        spi.write(0x2c);	spi.write(0x44);	spi.write(0x02);	spi.write(0x00);	spi.write(0x00);	spi.write(0x00);	
        spi.write(0x2a);	spi.write(0x44);	spi.write(0x02);	spi.write(0x00);	spi.write(0x1f);	spi.write(0x00);	
        spi.write(0x28);	spi.write(0x44);	spi.write(0x02);	spi.write(0x00);	spi.write(0xff);	spi.write(0xff);	
        spi.write(0x36);	spi.write(0x44);	spi.write(0x02);	spi.write(0x00);	spi.write(0x00);	spi.write(0x00);	
        spi.write(0x34);	spi.write(0x44);	spi.write(0x02);	spi.write(0x00);	spi.write(0x00);	spi.write(0x00);	
        spi.write(0x32);	spi.write(0x44);	spi.write(0x02);	spi.write(0x00);	spi.write(0x1f);	spi.write(0x00);	
        spi.write(0x30);	spi.write(0x44);	spi.write(0x02);	spi.write(0x00);	spi.write(0xff);	spi.write(0xff);	
        spi.write(0x3e);	spi.write(0x44);	spi.write(0x02);	spi.write(0x00);	spi.write(0x00);	spi.write(0x00);	
        spi.write(0x3c);	spi.write(0x44);	spi.write(0x02);	spi.write(0x00);	spi.write(0x00);	spi.write(0x00);	
        spi.write(0x3a);	spi.write(0x44);	spi.write(0x02);	spi.write(0x00);	spi.write(0x1f);	spi.write(0x00);	
        spi.write(0x38);	spi.write(0x44);	spi.write(0x02);	spi.write(0x00);	spi.write(0xff);	spi.write(0xff);	
        spi.write(0x46);	spi.write(0x44);	spi.write(0x02);	spi.write(0x00);	spi.write(0x00);	spi.write(0x00);	
        spi.write(0x44);	spi.write(0x44);	spi.write(0x02);	spi.write(0x00);	spi.write(0x00);	spi.write(0x00);	
        spi.write(0x42);	spi.write(0x44);	spi.write(0x02);	spi.write(0x00);	spi.write(0x1f);	spi.write(0x00);	
        spi.write(0x40);	spi.write(0x44);	spi.write(0x02);	spi.write(0x00);	spi.write(0xff);	spi.write(0x8f);	
        spi.write(0x4e);	spi.write(0x44);	spi.write(0x02);	spi.write(0x00);	spi.write(0x00);	spi.write(0x40);	
        spi.write(0x4c);	spi.write(0x44);	spi.write(0x02);	spi.write(0x00);	spi.write(0x08);	spi.write(0x00);	
        spi.write(0x4a);	spi.write(0x44);	spi.write(0x02);	spi.write(0x00);	spi.write(0x1f);	spi.write(0x40);	
        spi.write(0x48);	spi.write(0x44);	spi.write(0x02);	spi.write(0x00);	spi.write(0xff);	spi.write(0xff);	
        spi.write(0x56);	spi.write(0x44);	spi.write(0x02);	spi.write(0x00);	spi.write(0x00);	spi.write(0x00);	
        spi.write(0x54);	spi.write(0x44);	spi.write(0x02);	spi.write(0x00);	spi.write(0x00);	spi.write(0x00);	
        spi.write(0x52);	spi.write(0x44);	spi.write(0x02);	spi.write(0x00);	spi.write(0x1f);	spi.write(0x00);	
        spi.write(0x50);	spi.write(0x44);	spi.write(0x02);	spi.write(0x00);	spi.write(0xe7);	spi.write(0xff);	
        spi.write(0x5e);	spi.write(0x44);	spi.write(0x02);	spi.write(0x00);	spi.write(0x00);	spi.write(0x00);	
        spi.write(0x5c);	spi.write(0x44);	spi.write(0x02);	spi.write(0x00);	spi.write(0x00);	spi.write(0x00);	
        spi.write(0x5a);	spi.write(0x44);	spi.write(0x02);	spi.write(0x00);	spi.write(0x1f);	spi.write(0x00);	
        spi.write(0x58);	spi.write(0x44);	spi.write(0x02);	spi.write(0x00);	spi.write(0xff);	spi.write(0xff);	
        spi.write(0x66);	spi.write(0x44);	spi.write(0x02);	spi.write(0x00);	spi.write(0x00);	spi.write(0x00);	
        spi.write(0x64);	spi.write(0x44);	spi.write(0x02);	spi.write(0x00);	spi.write(0x00);	spi.write(0x00);	
        spi.write(0x62);	spi.write(0x44);	spi.write(0x02);	spi.write(0x00);	spi.write(0x1f);	spi.write(0x00);	
        spi.write(0x60);	spi.write(0x44);	spi.write(0x02);	spi.write(0x00);	spi.write(0xff);	spi.write(0xff);	
        spi.write(0x6e);	spi.write(0x44);	spi.write(0x02);	spi.write(0x00);	spi.write(0x00);	spi.write(0x00);	
        spi.write(0x6c);	spi.write(0x44);	spi.write(0x02);	spi.write(0x00);	spi.write(0x00);	spi.write(0x00);	
        spi.write(0x6a);	spi.write(0x44);	spi.write(0x02);	spi.write(0x00);	spi.write(0x1f);	spi.write(0x00);	
        spi.write(0x68);	spi.write(0x44);	spi.write(0x02);	spi.write(0x00);	spi.write(0xff);	spi.write(0xff);	
        spi.write(0x76);	spi.write(0x44);	spi.write(0x02);	spi.write(0x00);	spi.write(0x00);	spi.write(0x00);	
        spi.write(0x74);	spi.write(0x44);	spi.write(0x02);	spi.write(0x00);	spi.write(0x00);	spi.write(0x00);	
        spi.write(0x72);	spi.write(0x44);	spi.write(0x02);	spi.write(0x00);	spi.write(0x1f);	spi.write(0x00);	
        spi.write(0x70);	spi.write(0x44);	spi.write(0x02);	spi.write(0x00);	spi.write(0xff);	spi.write(0xff);	
        spi.write(0x7e);	spi.write(0x44);	spi.write(0x02);	spi.write(0x00);	spi.write(0x00);	spi.write(0x00);	
        spi.write(0x7c);	spi.write(0x44);	spi.write(0x02);	spi.write(0x00);	spi.write(0x00);	spi.write(0x00);	
        spi.write(0x7a);	spi.write(0x44);	spi.write(0x02);	spi.write(0x00);	spi.write(0x1f);	spi.write(0x00);	
        spi.write(0x78);	spi.write(0x44);	spi.write(0x02);	spi.write(0x00);	spi.write(0xff);	spi.write(0xff);	
        spi.write(0x86);	spi.write(0x44);	spi.write(0x02);	spi.write(0x00);	spi.write(0x00);	spi.write(0x00);	
        spi.write(0x84);	spi.write(0x44);	spi.write(0x02);	spi.write(0x00);	spi.write(0x00);	spi.write(0x00);	
        spi.write(0x82);	spi.write(0x44);	spi.write(0x02);	spi.write(0x00);	spi.write(0x1f);	spi.write(0x00);	
        spi.write(0x80);	spi.write(0x44);	spi.write(0x02);	spi.write(0x00);	spi.write(0xff);	spi.write(0xff);	
        spi.write(0x8e);	spi.write(0x44);	spi.write(0x02);	spi.write(0x00);	spi.write(0x00);	spi.write(0x00);	
        spi.write(0x8c);	spi.write(0x44);	spi.write(0x02);	spi.write(0x00);	spi.write(0x00);	spi.write(0x00);	
        spi.write(0x8a);	spi.write(0x44);	spi.write(0x02);	spi.write(0x00);	spi.write(0x1f);	spi.write(0x00);	
        spi.write(0x88);	spi.write(0x44);	spi.write(0x02);	spi.write(0x00);	spi.write(0xff);	spi.write(0xff);	
        spi.write(0x96);	spi.write(0x44);	spi.write(0x02);	spi.write(0x00);	spi.write(0x00);	spi.write(0x00);	
        spi.write(0x94);	spi.write(0x44);	spi.write(0x02);	spi.write(0x00);	spi.write(0x00);	spi.write(0x00);	
        spi.write(0x92);	spi.write(0x44);	spi.write(0x02);	spi.write(0x00);	spi.write(0x1f);	spi.write(0x00);	
        spi.write(0x90);	spi.write(0x44);	spi.write(0x02);	spi.write(0x00);	spi.write(0xff);	spi.write(0xff);	
        spi.write(0x9e);	spi.write(0x44);	spi.write(0x02);	spi.write(0x00);	spi.write(0x00);	spi.write(0x00);	
        spi.write(0x9c);	spi.write(0x44);	spi.write(0x02);	spi.write(0x00);	spi.write(0x00);	spi.write(0x00);	
        spi.write(0x9a);	spi.write(0x44);	spi.write(0x02);	spi.write(0x00);	spi.write(0x1f);	spi.write(0x00);	
        spi.write(0x98);	spi.write(0x44);	spi.write(0x02);	spi.write(0x00);	spi.write(0xff);	spi.write(0xff);	
        spi.write(0xa6);	spi.write(0x44);	spi.write(0x02);	spi.write(0x00);	spi.write(0x00);	spi.write(0x00);	
        spi.write(0xa4);	spi.write(0x44);	spi.write(0x02);	spi.write(0x00);	spi.write(0x00);	spi.write(0x00);	
        spi.write(0xa2);	spi.write(0x44);	spi.write(0x02);	spi.write(0x00);	spi.write(0x07);	spi.write(0x00);	
        spi.write(0xa0);	spi.write(0x44);	spi.write(0x02);	spi.write(0x00);	spi.write(0xff);	spi.write(0x8f);	
        spi.write(0xae);	spi.write(0x44);	spi.write(0x02);	spi.write(0x00);	spi.write(0x00);	spi.write(0x40);	
        spi.write(0xac);	spi.write(0x44);	spi.write(0x02);	spi.write(0x00);	spi.write(0xff);	spi.write(0x3f);	
        spi.write(0xaa);	spi.write(0x44);	spi.write(0x02);	spi.write(0x00);	spi.write(0x1f);	spi.write(0x40);	
        spi.write(0xa8);	spi.write(0x44);	spi.write(0x02);	spi.write(0x00);	spi.write(0xff);	spi.write(0xff);	
        spi.write(0xb6);	spi.write(0x44);	spi.write(0x02);	spi.write(0x00);	spi.write(0x00);	spi.write(0x00);	
        spi.write(0xb4);	spi.write(0x44);	spi.write(0x02);	spi.write(0x00);	spi.write(0x00);	spi.write(0x00);	
        spi.write(0xb2);	spi.write(0x44);	spi.write(0x02);	spi.write(0x00);	spi.write(0x1f);	spi.write(0x00);	
        spi.write(0xb0);	spi.write(0x44);	spi.write(0x02);	spi.write(0x00);	spi.write(0xff);	spi.write(0xff);	
        spi.write(0x06);	spi.write(0x45);	spi.write(0x02);	spi.write(0x00);	spi.write(0x00);	spi.write(0x40);	
        spi.write(0x04);	spi.write(0x45);	spi.write(0x02);	spi.write(0x00);	spi.write(0x0f);	spi.write(0x36);	
        spi.write(0x02);	spi.write(0x45);	spi.write(0x02);	spi.write(0x00);	spi.write(0x1f);	spi.write(0x80);	
        spi.write(0x00);	spi.write(0x45);	spi.write(0x02);	spi.write(0x00);	spi.write(0xff);	spi.write(0xff);	
        spi.write(0x0e);	spi.write(0x45);	spi.write(0x02);	spi.write(0x00);	spi.write(0x00);	spi.write(0x00);	
        spi.write(0x0c);	spi.write(0x45);	spi.write(0x02);	spi.write(0x00);	spi.write(0x00);	spi.write(0x00);	
        spi.write(0x0a);	spi.write(0x45);	spi.write(0x02);	spi.write(0x00);	spi.write(0x1f);	spi.write(0x00);	
        spi.write(0x08);	spi.write(0x45);	spi.write(0x02);	spi.write(0x00);	spi.write(0xff);	spi.write(0xff);	
        spi.write(0x16);	spi.write(0x45);	spi.write(0x02);	spi.write(0x00);	spi.write(0x00);	spi.write(0x00);	
        spi.write(0x14);	spi.write(0x45);	spi.write(0x02);	spi.write(0x00);	spi.write(0x00);	spi.write(0x00);	
        spi.write(0x12);	spi.write(0x45);	spi.write(0x02);	spi.write(0x00);	spi.write(0x1f);	spi.write(0x00);	
        spi.write(0x10);	spi.write(0x45);	spi.write(0x02);	spi.write(0x00);	spi.write(0xff);	spi.write(0xff);	
        spi.write(0x1e);	spi.write(0x45);	spi.write(0x02);	spi.write(0x00);	spi.write(0x00);	spi.write(0x00);	
        spi.write(0x1c);	spi.write(0x45);	spi.write(0x02);	spi.write(0x00);	spi.write(0x00);	spi.write(0x00);	
        spi.write(0x1a);	spi.write(0x45);	spi.write(0x02);	spi.write(0x00);	spi.write(0x1f);	spi.write(0x00);	
        spi.write(0x18);	spi.write(0x45);	spi.write(0x02);	spi.write(0x00);	spi.write(0xff);	spi.write(0xff);	
        spi.write(0x26);	spi.write(0x45);	spi.write(0x02);	spi.write(0x00);	spi.write(0x00);	spi.write(0x00);	
        spi.write(0x24);	spi.write(0x45);	spi.write(0x02);	spi.write(0x00);	spi.write(0x00);	spi.write(0x00);	
        spi.write(0x22);	spi.write(0x45);	spi.write(0x02);	spi.write(0x00);	spi.write(0x1f);	spi.write(0x00);	
        spi.write(0x20);	spi.write(0x45);	spi.write(0x02);	spi.write(0x00);	spi.write(0xff);	spi.write(0xff);	
        spi.write(0x2e);	spi.write(0x45);	spi.write(0x02);	spi.write(0x00);	spi.write(0x00);	spi.write(0x00);	
        spi.write(0x2c);	spi.write(0x45);	spi.write(0x02);	spi.write(0x00);	spi.write(0x00);	spi.write(0x00);	
        spi.write(0x2a);	spi.write(0x45);	spi.write(0x02);	spi.write(0x00);	spi.write(0x1f);	spi.write(0x00);	
        spi.write(0x28);	spi.write(0x45);	spi.write(0x02);	spi.write(0x00);	spi.write(0xff);	spi.write(0xff);	
        spi.write(0x36);	spi.write(0x45);	spi.write(0x02);	spi.write(0x00);	spi.write(0x00);	spi.write(0x00);	
        spi.write(0x34);	spi.write(0x45);	spi.write(0x02);	spi.write(0x00);	spi.write(0x00);	spi.write(0x00);	
        spi.write(0x32);	spi.write(0x45);	spi.write(0x02);	spi.write(0x00);	spi.write(0x1f);	spi.write(0x00);	
        spi.write(0x30);	spi.write(0x45);	spi.write(0x02);	spi.write(0x00);	spi.write(0xff);	spi.write(0xff);	
        spi.write(0x3e);	spi.write(0x45);	spi.write(0x02);	spi.write(0x00);	spi.write(0x00);	spi.write(0x00);	
        spi.write(0x3c);	spi.write(0x45);	spi.write(0x02);	spi.write(0x00);	spi.write(0x00);	spi.write(0x00);	
        spi.write(0x3a);	spi.write(0x45);	spi.write(0x02);	spi.write(0x00);	spi.write(0x1f);	spi.write(0x00);	
        spi.write(0x38);	spi.write(0x45);	spi.write(0x02);	spi.write(0x00);	spi.write(0xff);	spi.write(0x8f);	
        spi.write(0x46);	spi.write(0x45);	spi.write(0x02);	spi.write(0x00);	spi.write(0x00);	spi.write(0x40);	
        spi.write(0x44);	spi.write(0x45);	spi.write(0x02);	spi.write(0x00);	spi.write(0x08);	spi.write(0x00);	
        spi.write(0x42);	spi.write(0x45);	spi.write(0x02);	spi.write(0x00);	spi.write(0x1f);	spi.write(0x40);	
        spi.write(0x40);	spi.write(0x45);	spi.write(0x02);	spi.write(0x00);	spi.write(0x3f);	spi.write(0xff);	
        spi.write(0x4e);	spi.write(0x45);	spi.write(0x02);	spi.write(0x00);	spi.write(0x00);	spi.write(0x00);	
        spi.write(0x4c);	spi.write(0x45);	spi.write(0x02);	spi.write(0x00);	spi.write(0x00);	spi.write(0x00);	
        spi.write(0x4a);	spi.write(0x45);	spi.write(0x02);	spi.write(0x00);	spi.write(0x1f);	spi.write(0x00);	
        spi.write(0x48);	spi.write(0x45);	spi.write(0x02);	spi.write(0x00);	spi.write(0xff);	spi.write(0xff);	
        spi.write(0x56);	spi.write(0x45);	spi.write(0x02);	spi.write(0x00);	spi.write(0x00);	spi.write(0x00);	
        spi.write(0x54);	spi.write(0x45);	spi.write(0x02);	spi.write(0x00);	spi.write(0x00);	spi.write(0x00);	
        spi.write(0x52);	spi.write(0x45);	spi.write(0x02);	spi.write(0x00);	spi.write(0x1f);	spi.write(0x00);	
        spi.write(0x50);	spi.write(0x45);	spi.write(0x02);	spi.write(0x00);	spi.write(0xff);	spi.write(0xff);	
        spi.write(0x5e);	spi.write(0x45);	spi.write(0x02);	spi.write(0x00);	spi.write(0x00);	spi.write(0x00);	
        spi.write(0x5c);	spi.write(0x45);	spi.write(0x02);	spi.write(0x00);	spi.write(0x00);	spi.write(0x00);	
        spi.write(0x5a);	spi.write(0x45);	spi.write(0x02);	spi.write(0x00);	spi.write(0x1f);	spi.write(0x00);	
        spi.write(0x58);	spi.write(0x45);	spi.write(0x02);	spi.write(0x00);	spi.write(0xff);	spi.write(0xff);	
        spi.write(0x66);	spi.write(0x45);	spi.write(0x02);	spi.write(0x00);	spi.write(0x00);	spi.write(0x00);	
        spi.write(0x64);	spi.write(0x45);	spi.write(0x02);	spi.write(0x00);	spi.write(0x00);	spi.write(0x00);	
        spi.write(0x62);	spi.write(0x45);	spi.write(0x02);	spi.write(0x00);	spi.write(0x1f);	spi.write(0x00);	
        spi.write(0x60);	spi.write(0x45);	spi.write(0x02);	spi.write(0x00);	spi.write(0xff);	spi.write(0xff);	
        spi.write(0x6e);	spi.write(0x45);	spi.write(0x02);	spi.write(0x00);	spi.write(0x00);	spi.write(0x00);	
        spi.write(0x6c);	spi.write(0x45);	spi.write(0x02);	spi.write(0x00);	spi.write(0x00);	spi.write(0x00);	
        spi.write(0x6a);	spi.write(0x45);	spi.write(0x02);	spi.write(0x00);	spi.write(0x1f);	spi.write(0x00);	
        spi.write(0x68);	spi.write(0x45);	spi.write(0x02);	spi.write(0x00);	spi.write(0xff);	spi.write(0xff);	
        spi.write(0x76);	spi.write(0x45);	spi.write(0x02);	spi.write(0x00);	spi.write(0x00);	spi.write(0x00);	
        spi.write(0x74);	spi.write(0x45);	spi.write(0x02);	spi.write(0x00);	spi.write(0x00);	spi.write(0x00);	
        spi.write(0x72);	spi.write(0x45);	spi.write(0x02);	spi.write(0x00);	spi.write(0x1f);	spi.write(0x00);	
        spi.write(0x70);	spi.write(0x45);	spi.write(0x02);	spi.write(0x00);	spi.write(0xff);	spi.write(0xff);	
        spi.write(0x7e);	spi.write(0x45);	spi.write(0x02);	spi.write(0x00);	spi.write(0x00);	spi.write(0x00);	
        spi.write(0x7c);	spi.write(0x45);	spi.write(0x02);	spi.write(0x00);	spi.write(0x00);	spi.write(0x00);	
        spi.write(0x7a);	spi.write(0x45);	spi.write(0x02);	spi.write(0x00);	spi.write(0x1f);	spi.write(0x00);	
        spi.write(0x78);	spi.write(0x45);	spi.write(0x02);	spi.write(0x00);	spi.write(0xff);	spi.write(0xff);	
        spi.write(0x86);	spi.write(0x45);	spi.write(0x02);	spi.write(0x00);	spi.write(0x00);	spi.write(0x00);	
        spi.write(0x84);	spi.write(0x45);	spi.write(0x02);	spi.write(0x00);	spi.write(0x00);	spi.write(0x00);	
        spi.write(0x82);	spi.write(0x45);	spi.write(0x02);	spi.write(0x00);	spi.write(0x1f);	spi.write(0x00);	
        spi.write(0x80);	spi.write(0x45);	spi.write(0x02);	spi.write(0x00);	spi.write(0xff);	spi.write(0xff);	
        spi.write(0x8e);	spi.write(0x45);	spi.write(0x02);	spi.write(0x00);	spi.write(0x00);	spi.write(0x00);	
        spi.write(0x8c);	spi.write(0x45);	spi.write(0x02);	spi.write(0x00);	spi.write(0x00);	spi.write(0x00);	
        spi.write(0x8a);	spi.write(0x45);	spi.write(0x02);	spi.write(0x00);	spi.write(0x1f);	spi.write(0x00);	
        spi.write(0x88);	spi.write(0x45);	spi.write(0x02);	spi.write(0x00);	spi.write(0xff);	spi.write(0xff);	
        spi.write(0x96);	spi.write(0x45);	spi.write(0x02);	spi.write(0x00);	spi.write(0x00);	spi.write(0x00);	
        spi.write(0x94);	spi.write(0x45);	spi.write(0x02);	spi.write(0x00);	spi.write(0x00);	spi.write(0x00);	
        spi.write(0x92);	spi.write(0x45);	spi.write(0x02);	spi.write(0x00);	spi.write(0x1f);	spi.write(0x00);	
        spi.write(0x90);	spi.write(0x45);	spi.write(0x02);	spi.write(0x00);	spi.write(0xff);	spi.write(0xff);	
        spi.write(0x9e);	spi.write(0x45);	spi.write(0x02);	spi.write(0x00);	spi.write(0x00);	spi.write(0x00);	
        spi.write(0x9c);	spi.write(0x45);	spi.write(0x02);	spi.write(0x00);	spi.write(0x00);	spi.write(0x00);	
        spi.write(0x9a);	spi.write(0x45);	spi.write(0x02);	spi.write(0x00);	spi.write(0x1f);	spi.write(0x00);	
        spi.write(0x98);	spi.write(0x45);	spi.write(0x02);	spi.write(0x00);	spi.write(0xff);	spi.write(0xff);	
        spi.write(0xa6);	spi.write(0x45);	spi.write(0x02);	spi.write(0x00);	spi.write(0x00);	spi.write(0x40);	
        spi.write(0xa4);	spi.write(0x45);	spi.write(0x02);	spi.write(0x00);	spi.write(0x0f);	spi.write(0x00);	
        spi.write(0xa2);	spi.write(0x45);	spi.write(0x02);	spi.write(0x00);	spi.write(0x1f);	spi.write(0xc0);	
        spi.write(0xa0);	spi.write(0x45);	spi.write(0x02);	spi.write(0x00);	spi.write(0x3f);	spi.write(0xff);	
        spi.write(0xae);	spi.write(0x45);	spi.write(0x02);	spi.write(0x00);	spi.write(0x00);	spi.write(0x00);	
        spi.write(0xac);	spi.write(0x45);	spi.write(0x02);	spi.write(0x00);	spi.write(0x00);	spi.write(0x00);	
        spi.write(0xaa);	spi.write(0x45);	spi.write(0x02);	spi.write(0x00);	spi.write(0x1f);	spi.write(0x00);	
        spi.write(0xa8);	spi.write(0x45);	spi.write(0x02);	spi.write(0x00);	spi.write(0xff);	spi.write(0xff);	
        spi.write(0xb6);	spi.write(0x45);	spi.write(0x02);	spi.write(0x00);	spi.write(0x00);	spi.write(0x00);	
        spi.write(0xb4);	spi.write(0x45);	spi.write(0x02);	spi.write(0x00);	spi.write(0x00);	spi.write(0x00);	
        spi.write(0xb2);	spi.write(0x45);	spi.write(0x02);	spi.write(0x00);	spi.write(0x1f);	spi.write(0x00);	
        spi.write(0xb0);	spi.write(0x45);	spi.write(0x02);	spi.write(0x00);	spi.write(0xff);	spi.write(0xff);	
        spi.write(0x06);	spi.write(0x46);	spi.write(0x02);	spi.write(0x00);	spi.write(0x00);	spi.write(0x40);	
        spi.write(0x04);	spi.write(0x46);	spi.write(0x02);	spi.write(0x00);	spi.write(0x0f);	spi.write(0x36);	
        spi.write(0x02);	spi.write(0x46);	spi.write(0x02);	spi.write(0x00);	spi.write(0x1f);	spi.write(0x80);	
        spi.write(0x00);	spi.write(0x46);	spi.write(0x02);	spi.write(0x00);	spi.write(0xff);	spi.write(0xff);	
        spi.write(0x0e);	spi.write(0x46);	spi.write(0x02);	spi.write(0x00);	spi.write(0x00);	spi.write(0x00);	
        spi.write(0x0c);	spi.write(0x46);	spi.write(0x02);	spi.write(0x00);	spi.write(0x00);	spi.write(0x00);	
        spi.write(0x0a);	spi.write(0x46);	spi.write(0x02);	spi.write(0x00);	spi.write(0x1f);	spi.write(0x00);	
        spi.write(0x08);	spi.write(0x46);	spi.write(0x02);	spi.write(0x00);	spi.write(0xff);	spi.write(0xff);	
        spi.write(0x16);	spi.write(0x46);	spi.write(0x02);	spi.write(0x00);	spi.write(0x00);	spi.write(0x00);	
        spi.write(0x14);	spi.write(0x46);	spi.write(0x02);	spi.write(0x00);	spi.write(0x00);	spi.write(0x00);	
        spi.write(0x12);	spi.write(0x46);	spi.write(0x02);	spi.write(0x00);	spi.write(0x1f);	spi.write(0x00);	
        spi.write(0x10);	spi.write(0x46);	spi.write(0x02);	spi.write(0x00);	spi.write(0xff);	spi.write(0xff);	
        spi.write(0x1e);	spi.write(0x46);	spi.write(0x02);	spi.write(0x00);	spi.write(0x00);	spi.write(0x00);	
        spi.write(0x1c);	spi.write(0x46);	spi.write(0x02);	spi.write(0x00);	spi.write(0x00);	spi.write(0x00);	
        spi.write(0x1a);	spi.write(0x46);	spi.write(0x02);	spi.write(0x00);	spi.write(0x1f);	spi.write(0x00);	
        spi.write(0x18);	spi.write(0x46);	spi.write(0x02);	spi.write(0x00);	spi.write(0xff);	spi.write(0xff);	
        spi.write(0x26);	spi.write(0x46);	spi.write(0x02);	spi.write(0x00);	spi.write(0x00);	spi.write(0x00);	
        spi.write(0x24);	spi.write(0x46);	spi.write(0x02);	spi.write(0x00);	spi.write(0x00);	spi.write(0x00);	
        spi.write(0x22);	spi.write(0x46);	spi.write(0x02);	spi.write(0x00);	spi.write(0x1f);	spi.write(0x00);	
        spi.write(0x20);	spi.write(0x46);	spi.write(0x02);	spi.write(0x00);	spi.write(0xff);	spi.write(0xff);	
        spi.write(0x2e);	spi.write(0x46);	spi.write(0x02);	spi.write(0x00);	spi.write(0x00);	spi.write(0x00);	
        spi.write(0x2c);	spi.write(0x46);	spi.write(0x02);	spi.write(0x00);	spi.write(0x00);	spi.write(0x00);	
        spi.write(0x2a);	spi.write(0x46);	spi.write(0x02);	spi.write(0x00);	spi.write(0x1f);	spi.write(0x00);	
        spi.write(0x28);	spi.write(0x46);	spi.write(0x02);	spi.write(0x00);	spi.write(0xff);	spi.write(0xff);	
        spi.write(0x36);	spi.write(0x46);	spi.write(0x02);	spi.write(0x00);	spi.write(0x00);	spi.write(0x00);	
        spi.write(0x34);	spi.write(0x46);	spi.write(0x02);	spi.write(0x00);	spi.write(0x00);	spi.write(0x00);	
        spi.write(0x32);	spi.write(0x46);	spi.write(0x02);	spi.write(0x00);	spi.write(0x1f);	spi.write(0x00);	
        spi.write(0x30);	spi.write(0x46);	spi.write(0x02);	spi.write(0x00);	spi.write(0xff);	spi.write(0x8f);	
        spi.write(0x3e);	spi.write(0x46);	spi.write(0x02);	spi.write(0x00);	spi.write(0x00);	spi.write(0x40);	
        spi.write(0x3c);	spi.write(0x46);	spi.write(0x02);	spi.write(0x00);	spi.write(0x08);	spi.write(0x00);	
        spi.write(0x3a);	spi.write(0x46);	spi.write(0x02);	spi.write(0x00);	spi.write(0x1f);	spi.write(0x40);	
        spi.write(0x38);	spi.write(0x46);	spi.write(0x02);	spi.write(0x00);	spi.write(0x3f);	spi.write(0xff);	
        spi.write(0x46);	spi.write(0x46);	spi.write(0x02);	spi.write(0x00);	spi.write(0x00);	spi.write(0x00);	
        spi.write(0x44);	spi.write(0x46);	spi.write(0x02);	spi.write(0x00);	spi.write(0x00);	spi.write(0x00);	
        spi.write(0x42);	spi.write(0x46);	spi.write(0x02);	spi.write(0x00);	spi.write(0x1f);	spi.write(0x00);	
        spi.write(0x40);	spi.write(0x46);	spi.write(0x02);	spi.write(0x00);	spi.write(0xff);	spi.write(0xff);	
        spi.write(0x4e);	spi.write(0x46);	spi.write(0x02);	spi.write(0x00);	spi.write(0x00);	spi.write(0x00);	
        spi.write(0x4c);	spi.write(0x46);	spi.write(0x02);	spi.write(0x00);	spi.write(0x00);	spi.write(0x00);	
        spi.write(0x4a);	spi.write(0x46);	spi.write(0x02);	spi.write(0x00);	spi.write(0x1f);	spi.write(0x00);	
        spi.write(0x48);	spi.write(0x46);	spi.write(0x02);	spi.write(0x00);	spi.write(0xff);	spi.write(0xff);	
        spi.write(0x56);	spi.write(0x46);	spi.write(0x02);	spi.write(0x00);	spi.write(0x00);	spi.write(0x00);	
        spi.write(0x54);	spi.write(0x46);	spi.write(0x02);	spi.write(0x00);	spi.write(0x00);	spi.write(0x00);	
        spi.write(0x52);	spi.write(0x46);	spi.write(0x02);	spi.write(0x00);	spi.write(0x1f);	spi.write(0x00);	
        spi.write(0x50);	spi.write(0x46);	spi.write(0x02);	spi.write(0x00);	spi.write(0xff);	spi.write(0xff);	
        spi.write(0x5e);	spi.write(0x46);	spi.write(0x02);	spi.write(0x00);	spi.write(0x00);	spi.write(0x00);	
        spi.write(0x5c);	spi.write(0x46);	spi.write(0x02);	spi.write(0x00);	spi.write(0x00);	spi.write(0x00);	
        spi.write(0x5a);	spi.write(0x46);	spi.write(0x02);	spi.write(0x00);	spi.write(0x1f);	spi.write(0x00);	
        spi.write(0x58);	spi.write(0x46);	spi.write(0x02);	spi.write(0x00);	spi.write(0xff);	spi.write(0xff);	
        spi.write(0x66);	spi.write(0x46);	spi.write(0x02);	spi.write(0x00);	spi.write(0x00);	spi.write(0x00);	
        spi.write(0x64);	spi.write(0x46);	spi.write(0x02);	spi.write(0x00);	spi.write(0x00);	spi.write(0x00);	
        spi.write(0x62);	spi.write(0x46);	spi.write(0x02);	spi.write(0x00);	spi.write(0x1f);	spi.write(0x00);	
        spi.write(0x60);	spi.write(0x46);	spi.write(0x02);	spi.write(0x00);	spi.write(0xff);	spi.write(0xff);	
        spi.write(0x6e);	spi.write(0x46);	spi.write(0x02);	spi.write(0x00);	spi.write(0x00);	spi.write(0x00);	
        spi.write(0x6c);	spi.write(0x46);	spi.write(0x02);	spi.write(0x00);	spi.write(0x00);	spi.write(0x00);	
        spi.write(0x6a);	spi.write(0x46);	spi.write(0x02);	spi.write(0x00);	spi.write(0x1f);	spi.write(0x00);	
        spi.write(0x68);	spi.write(0x46);	spi.write(0x02);	spi.write(0x00);	spi.write(0xff);	spi.write(0xff);	
        spi.write(0x76);	spi.write(0x46);	spi.write(0x02);	spi.write(0x00);	spi.write(0x00);	spi.write(0x00);	
        spi.write(0x74);	spi.write(0x46);	spi.write(0x02);	spi.write(0x00);	spi.write(0x00);	spi.write(0x00);	
        spi.write(0x72);	spi.write(0x46);	spi.write(0x02);	spi.write(0x00);	spi.write(0x1f);	spi.write(0x00);	
        spi.write(0x70);	spi.write(0x46);	spi.write(0x02);	spi.write(0x00);	spi.write(0xff);	spi.write(0xff);	
        spi.write(0x7e);	spi.write(0x46);	spi.write(0x02);	spi.write(0x00);	spi.write(0x00);	spi.write(0x00);	
        spi.write(0x7c);	spi.write(0x46);	spi.write(0x02);	spi.write(0x00);	spi.write(0x00);	spi.write(0x00);	
        spi.write(0x7a);	spi.write(0x46);	spi.write(0x02);	spi.write(0x00);	spi.write(0x1f);	spi.write(0x00);	
        spi.write(0x78);	spi.write(0x46);	spi.write(0x02);	spi.write(0x00);	spi.write(0xff);	spi.write(0xff);	
        spi.write(0x86);	spi.write(0x46);	spi.write(0x02);	spi.write(0x00);	spi.write(0x00);	spi.write(0x00);	
        spi.write(0x84);	spi.write(0x46);	spi.write(0x02);	spi.write(0x00);	spi.write(0x00);	spi.write(0x00);	
        spi.write(0x82);	spi.write(0x46);	spi.write(0x02);	spi.write(0x00);	spi.write(0x1f);	spi.write(0x00);	
        spi.write(0x80);	spi.write(0x46);	spi.write(0x02);	spi.write(0x00);	spi.write(0xff);	spi.write(0xff);	
        spi.write(0x8e);	spi.write(0x46);	spi.write(0x02);	spi.write(0x00);	spi.write(0x00);	spi.write(0x00);	
        spi.write(0x8c);	spi.write(0x46);	spi.write(0x02);	spi.write(0x00);	spi.write(0x00);	spi.write(0x00);	
        spi.write(0x8a);	spi.write(0x46);	spi.write(0x02);	spi.write(0x00);	spi.write(0x1f);	spi.write(0x00);	
        spi.write(0x88);	spi.write(0x46);	spi.write(0x02);	spi.write(0x00);	spi.write(0xff);	spi.write(0xff);	
        spi.write(0x96);	spi.write(0x46);	spi.write(0x02);	spi.write(0x00);	spi.write(0x00);	spi.write(0x00);	
        spi.write(0x94);	spi.write(0x46);	spi.write(0x02);	spi.write(0x00);	spi.write(0x00);	spi.write(0x00);	
        spi.write(0x92);	spi.write(0x46);	spi.write(0x02);	spi.write(0x00);	spi.write(0x1f);	spi.write(0x00);	
        spi.write(0x90);	spi.write(0x46);	spi.write(0x02);	spi.write(0x00);	spi.write(0xff);	spi.write(0xff);	
        spi.write(0x9e);	spi.write(0x46);	spi.write(0x02);	spi.write(0x00);	spi.write(0x00);	spi.write(0x00);	
        spi.write(0x9c);	spi.write(0x46);	spi.write(0x02);	spi.write(0x00);	spi.write(0x00);	spi.write(0x00);	
        spi.write(0x9a);	spi.write(0x46);	spi.write(0x02);	spi.write(0x00);	spi.write(0x1f);	spi.write(0x00);	
        spi.write(0x98);	spi.write(0x46);	spi.write(0x02);	spi.write(0x00);	spi.write(0xff);	spi.write(0xff);	
        spi.write(0xa6);	spi.write(0x46);	spi.write(0x02);	spi.write(0x00);	spi.write(0x00);	spi.write(0x00);	
        spi.write(0xa4);	spi.write(0x46);	spi.write(0x02);	spi.write(0x00);	spi.write(0x00);	spi.write(0x00);	
        spi.write(0xa2);	spi.write(0x46);	spi.write(0x02);	spi.write(0x00);	spi.write(0x1f);	spi.write(0x00);	
        spi.write(0xa0);	spi.write(0x46);	spi.write(0x02);	spi.write(0x00);	spi.write(0xff);	spi.write(0xff);	
        spi.write(0xae);	spi.write(0x46);	spi.write(0x02);	spi.write(0x00);	spi.write(0x00);	spi.write(0x00);	
        spi.write(0xac);	spi.write(0x46);	spi.write(0x02);	spi.write(0x00);	spi.write(0x00);	spi.write(0x00);	
        spi.write(0xaa);	spi.write(0x46);	spi.write(0x02);	spi.write(0x00);	spi.write(0x1f);	spi.write(0x00);	
        spi.write(0xa8);	spi.write(0x46);	spi.write(0x02);	spi.write(0x00);	spi.write(0xff);	spi.write(0xff);	
        spi.write(0xb6);	spi.write(0x46);	spi.write(0x02);	spi.write(0x00);	spi.write(0x00);	spi.write(0x00);	
        spi.write(0xb4);	spi.write(0x46);	spi.write(0x02);	spi.write(0x00);	spi.write(0x00);	spi.write(0x00);	
        spi.write(0xb2);	spi.write(0x46);	spi.write(0x02);	spi.write(0x00);	spi.write(0x1f);	spi.write(0x00);	
        spi.write(0xb0);	spi.write(0x46);	spi.write(0x02);	spi.write(0x00);	spi.write(0xff);	spi.write(0xff);	
        spi.write(0x06);	spi.write(0x47);	spi.write(0x02);	spi.write(0x00);	spi.write(0x00);	spi.write(0x40);	
        spi.write(0x04);	spi.write(0x47);	spi.write(0x02);	spi.write(0x00);	spi.write(0x0f);	spi.write(0x36);	
        spi.write(0x02);	spi.write(0x47);	spi.write(0x02);	spi.write(0x00);	spi.write(0x1f);	spi.write(0x80);	
        spi.write(0x00);	spi.write(0x47);	spi.write(0x02);	spi.write(0x00);	spi.write(0xff);	spi.write(0xff);	
        spi.write(0x0e);	spi.write(0x47);	spi.write(0x02);	spi.write(0x00);	spi.write(0x00);	spi.write(0x00);	
        spi.write(0x0c);	spi.write(0x47);	spi.write(0x02);	spi.write(0x00);	spi.write(0x00);	spi.write(0x00);	
        spi.write(0x0a);	spi.write(0x47);	spi.write(0x02);	spi.write(0x00);	spi.write(0x1f);	spi.write(0x00);	
        spi.write(0x08);	spi.write(0x47);	spi.write(0x02);	spi.write(0x00);	spi.write(0xff);	spi.write(0xff);	
        spi.write(0x16);	spi.write(0x47);	spi.write(0x02);	spi.write(0x00);	spi.write(0x00);	spi.write(0x00);	
        spi.write(0x14);	spi.write(0x47);	spi.write(0x02);	spi.write(0x00);	spi.write(0x00);	spi.write(0x00);	
        spi.write(0x12);	spi.write(0x47);	spi.write(0x02);	spi.write(0x00);	spi.write(0x1f);	spi.write(0x00);	
        spi.write(0x10);	spi.write(0x47);	spi.write(0x02);	spi.write(0x00);	spi.write(0xff);	spi.write(0xff);	
        spi.write(0x1e);	spi.write(0x47);	spi.write(0x02);	spi.write(0x00);	spi.write(0x00);	spi.write(0x00);	
        spi.write(0x1c);	spi.write(0x47);	spi.write(0x02);	spi.write(0x00);	spi.write(0x00);	spi.write(0x00);	
        spi.write(0x1a);	spi.write(0x47);	spi.write(0x02);	spi.write(0x00);	spi.write(0x1f);	spi.write(0x00);	
        spi.write(0x18);	spi.write(0x47);	spi.write(0x02);	spi.write(0x00);	spi.write(0xff);	spi.write(0xff);	
        spi.write(0x26);	spi.write(0x47);	spi.write(0x02);	spi.write(0x00);	spi.write(0x00);	spi.write(0x00);	
        spi.write(0x24);	spi.write(0x47);	spi.write(0x02);	spi.write(0x00);	spi.write(0x00);	spi.write(0x00);	
        spi.write(0x22);	spi.write(0x47);	spi.write(0x02);	spi.write(0x00);	spi.write(0x1f);	spi.write(0x00);	
        spi.write(0x20);	spi.write(0x47);	spi.write(0x02);	spi.write(0x00);	spi.write(0xff);	spi.write(0xff);	
        spi.write(0x2e);	spi.write(0x47);	spi.write(0x02);	spi.write(0x00);	spi.write(0x00);	spi.write(0x00);	
        spi.write(0x2c);	spi.write(0x47);	spi.write(0x02);	spi.write(0x00);	spi.write(0x00);	spi.write(0x00);	
        spi.write(0x2a);	spi.write(0x47);	spi.write(0x02);	spi.write(0x00);	spi.write(0x1f);	spi.write(0x00);	
        spi.write(0x28);	spi.write(0x47);	spi.write(0x02);	spi.write(0x00);	spi.write(0xff);	spi.write(0xbf);	
        spi.write(0x36);	spi.write(0x47);	spi.write(0x02);	spi.write(0x00);	spi.write(0x00);	spi.write(0x40);	
        spi.write(0x34);	spi.write(0x47);	spi.write(0x02);	spi.write(0x00);	spi.write(0x08);	spi.write(0x00);	
        spi.write(0x32);	spi.write(0x47);	spi.write(0x02);	spi.write(0x00);	spi.write(0x1f);	spi.write(0x40);	
        spi.write(0x30);	spi.write(0x47);	spi.write(0x02);	spi.write(0x00);	spi.write(0x3f);	spi.write(0xff);	
        spi.write(0x3e);	spi.write(0x47);	spi.write(0x02);	spi.write(0x00);	spi.write(0x00);	spi.write(0x00);	
        spi.write(0x3c);	spi.write(0x47);	spi.write(0x02);	spi.write(0x00);	spi.write(0x00);	spi.write(0x00);	
        spi.write(0x3a);	spi.write(0x47);	spi.write(0x02);	spi.write(0x00);	spi.write(0x1f);	spi.write(0x00);	
        spi.write(0x38);	spi.write(0x47);	spi.write(0x02);	spi.write(0x00);	spi.write(0xff);	spi.write(0xff);	
        spi.write(0x46);	spi.write(0x47);	spi.write(0x02);	spi.write(0x00);	spi.write(0x00);	spi.write(0x00);	
        spi.write(0x44);	spi.write(0x47);	spi.write(0x02);	spi.write(0x00);	spi.write(0x00);	spi.write(0x00);	
        spi.write(0x42);	spi.write(0x47);	spi.write(0x02);	spi.write(0x00);	spi.write(0x1f);	spi.write(0x00);	
        spi.write(0x40);	spi.write(0x47);	spi.write(0x02);	spi.write(0x00);	spi.write(0xff);	spi.write(0xff);	
        spi.write(0x4e);	spi.write(0x47);	spi.write(0x02);	spi.write(0x00);	spi.write(0x00);	spi.write(0x00);	
        spi.write(0x4c);	spi.write(0x47);	spi.write(0x02);	spi.write(0x00);	spi.write(0x00);	spi.write(0x00);	
        spi.write(0x4a);	spi.write(0x47);	spi.write(0x02);	spi.write(0x00);	spi.write(0x1f);	spi.write(0x00);	
        spi.write(0x48);	spi.write(0x47);	spi.write(0x02);	spi.write(0x00);	spi.write(0xff);	spi.write(0xff);	
        spi.write(0x56);	spi.write(0x47);	spi.write(0x02);	spi.write(0x00);	spi.write(0x00);	spi.write(0x00);	
        spi.write(0x54);	spi.write(0x47);	spi.write(0x02);	spi.write(0x00);	spi.write(0x00);	spi.write(0x00);	
        spi.write(0x52);	spi.write(0x47);	spi.write(0x02);	spi.write(0x00);	spi.write(0x1f);	spi.write(0x00);	
        spi.write(0x50);	spi.write(0x47);	spi.write(0x02);	spi.write(0x00);	spi.write(0xff);	spi.write(0xff);	
        spi.write(0x5e);	spi.write(0x47);	spi.write(0x02);	spi.write(0x00);	spi.write(0x00);	spi.write(0x00);	
        spi.write(0x5c);	spi.write(0x47);	spi.write(0x02);	spi.write(0x00);	spi.write(0x00);	spi.write(0x00);	
        spi.write(0x5a);	spi.write(0x47);	spi.write(0x02);	spi.write(0x00);	spi.write(0x1f);	spi.write(0x00);	
        spi.write(0x58);	spi.write(0x47);	spi.write(0x02);	spi.write(0x00);	spi.write(0xff);	spi.write(0xff);	
        spi.write(0x66);	spi.write(0x47);	spi.write(0x02);	spi.write(0x00);	spi.write(0x00);	spi.write(0x00);	
        spi.write(0x64);	spi.write(0x47);	spi.write(0x02);	spi.write(0x00);	spi.write(0x00);	spi.write(0x00);	
        spi.write(0x62);	spi.write(0x47);	spi.write(0x02);	spi.write(0x00);	spi.write(0x1f);	spi.write(0x00);	
        spi.write(0x60);	spi.write(0x47);	spi.write(0x02);	spi.write(0x00);	spi.write(0xff);	spi.write(0xff);	
        spi.write(0x6e);	spi.write(0x47);	spi.write(0x02);	spi.write(0x00);	spi.write(0x00);	spi.write(0x00);	
        spi.write(0x6c);	spi.write(0x47);	spi.write(0x02);	spi.write(0x00);	spi.write(0x00);	spi.write(0x00);	
        spi.write(0x6a);	spi.write(0x47);	spi.write(0x02);	spi.write(0x00);	spi.write(0x1f);	spi.write(0x00);	
        spi.write(0x68);	spi.write(0x47);	spi.write(0x02);	spi.write(0x00);	spi.write(0xff);	spi.write(0xff);	
        spi.write(0x76);	spi.write(0x47);	spi.write(0x02);	spi.write(0x00);	spi.write(0x00);	spi.write(0x00);	
        spi.write(0x74);	spi.write(0x47);	spi.write(0x02);	spi.write(0x00);	spi.write(0x00);	spi.write(0x00);	
        spi.write(0x72);	spi.write(0x47);	spi.write(0x02);	spi.write(0x00);	spi.write(0x1f);	spi.write(0x00);	
        spi.write(0x70);	spi.write(0x47);	spi.write(0x02);	spi.write(0x00);	spi.write(0xff);	spi.write(0xff);	
        spi.write(0x7e);	spi.write(0x47);	spi.write(0x02);	spi.write(0x00);	spi.write(0x00);	spi.write(0x00);	
        spi.write(0x7c);	spi.write(0x47);	spi.write(0x02);	spi.write(0x00);	spi.write(0x00);	spi.write(0x00);	
        spi.write(0x7a);	spi.write(0x47);	spi.write(0x02);	spi.write(0x00);	spi.write(0x1f);	spi.write(0x00);	
        spi.write(0x78);	spi.write(0x47);	spi.write(0x02);	spi.write(0x00);	spi.write(0xff);	spi.write(0xff);	
        spi.write(0x86);	spi.write(0x47);	spi.write(0x02);	spi.write(0x00);	spi.write(0x00);	spi.write(0x00);	
        spi.write(0x84);	spi.write(0x47);	spi.write(0x02);	spi.write(0x00);	spi.write(0x00);	spi.write(0x00);	
        spi.write(0x82);	spi.write(0x47);	spi.write(0x02);	spi.write(0x00);	spi.write(0x1f);	spi.write(0x00);	
        spi.write(0x80);	spi.write(0x47);	spi.write(0x02);	spi.write(0x00);	spi.write(0xff);	spi.write(0xff);	
        spi.write(0x8e);	spi.write(0x47);	spi.write(0x02);	spi.write(0x00);	spi.write(0x00);	spi.write(0x00);	
        spi.write(0x8c);	spi.write(0x47);	spi.write(0x02);	spi.write(0x00);	spi.write(0x00);	spi.write(0x00);	
        spi.write(0x8a);	spi.write(0x47);	spi.write(0x02);	spi.write(0x00);	spi.write(0x1f);	spi.write(0x00);	
        spi.write(0x88);	spi.write(0x47);	spi.write(0x02);	spi.write(0x00);	spi.write(0xff);	spi.write(0xff);	
        spi.write(0x96);	spi.write(0x47);	spi.write(0x02);	spi.write(0x00);	spi.write(0x00);	spi.write(0x00);	
        spi.write(0x94);	spi.write(0x47);	spi.write(0x02);	spi.write(0x00);	spi.write(0x00);	spi.write(0x00);	
        spi.write(0x92);	spi.write(0x47);	spi.write(0x02);	spi.write(0x00);	spi.write(0x1f);	spi.write(0x00);	
        spi.write(0x90);	spi.write(0x47);	spi.write(0x02);	spi.write(0x00);	spi.write(0xff);	spi.write(0xff);	
        spi.write(0x9e);	spi.write(0x47);	spi.write(0x02);	spi.write(0x00);	spi.write(0x00);	spi.write(0x00);	
        spi.write(0x9c);	spi.write(0x47);	spi.write(0x02);	spi.write(0x00);	spi.write(0x00);	spi.write(0x00);	
        spi.write(0x9a);	spi.write(0x47);	spi.write(0x02);	spi.write(0x00);	spi.write(0x1f);	spi.write(0x00);	
        spi.write(0x98);	spi.write(0x47);	spi.write(0x02);	spi.write(0x00);	spi.write(0xff);	spi.write(0xff);	
        spi.write(0xa6);	spi.write(0x47);	spi.write(0x02);	spi.write(0x00);	spi.write(0x00);	spi.write(0x00);	
        spi.write(0xa4);	spi.write(0x47);	spi.write(0x02);	spi.write(0x00);	spi.write(0x00);	spi.write(0x00);	
        spi.write(0xa2);	spi.write(0x47);	spi.write(0x02);	spi.write(0x00);	spi.write(0x1f);	spi.write(0x00);	
        spi.write(0xa0);	spi.write(0x47);	spi.write(0x02);	spi.write(0x00);	spi.write(0xff);	spi.write(0xff);	
        spi.write(0xae);	spi.write(0x47);	spi.write(0x02);	spi.write(0x00);	spi.write(0x00);	spi.write(0x00);	
        spi.write(0xac);	spi.write(0x47);	spi.write(0x02);	spi.write(0x00);	spi.write(0x00);	spi.write(0x00);	
        spi.write(0xaa);	spi.write(0x47);	spi.write(0x02);	spi.write(0x00);	spi.write(0x1f);	spi.write(0x00);	
        spi.write(0xa8);	spi.write(0x47);	spi.write(0x02);	spi.write(0x00);	spi.write(0xff);	spi.write(0xff);	
        spi.write(0xb6);	spi.write(0x47);	spi.write(0x02);	spi.write(0x00);	spi.write(0x00);	spi.write(0x00);	
        spi.write(0xb4);	spi.write(0x47);	spi.write(0x02);	spi.write(0x00);	spi.write(0x00);	spi.write(0x00);	
        spi.write(0xb2);	spi.write(0x47);	spi.write(0x02);	spi.write(0x00);	spi.write(0x1f);	spi.write(0x00);	
        spi.write(0xb0);	spi.write(0x47);	spi.write(0x02);	spi.write(0x00);	spi.write(0xff);	spi.write(0xff);	
        spi.write(0x06);	spi.write(0x48);	spi.write(0x02);	spi.write(0x00);	spi.write(0x00);	spi.write(0x40);	
        spi.write(0x04);	spi.write(0x48);	spi.write(0x02);	spi.write(0x00);	spi.write(0x0f);	spi.write(0x36);	
        spi.write(0x02);	spi.write(0x48);	spi.write(0x02);	spi.write(0x00);	spi.write(0x1f);	spi.write(0x80);	
        spi.write(0x00);	spi.write(0x48);	spi.write(0x02);	spi.write(0x00);	spi.write(0xff);	spi.write(0xff);	
        spi.write(0x0e);	spi.write(0x48);	spi.write(0x02);	spi.write(0x00);	spi.write(0x00);	spi.write(0x00);	
        spi.write(0x0c);	spi.write(0x48);	spi.write(0x02);	spi.write(0x00);	spi.write(0x00);	spi.write(0x00);	
        spi.write(0x0a);	spi.write(0x48);	spi.write(0x02);	spi.write(0x00);	spi.write(0x1f);	spi.write(0x00);	
        spi.write(0x08);	spi.write(0x48);	spi.write(0x02);	spi.write(0x00);	spi.write(0xff);	spi.write(0xff);	
        spi.write(0x16);	spi.write(0x48);	spi.write(0x02);	spi.write(0x00);	spi.write(0x00);	spi.write(0x00);	
        spi.write(0x14);	spi.write(0x48);	spi.write(0x02);	spi.write(0x00);	spi.write(0x00);	spi.write(0x00);	
        spi.write(0x12);	spi.write(0x48);	spi.write(0x02);	spi.write(0x00);	spi.write(0x1f);	spi.write(0x00);	
        spi.write(0x10);	spi.write(0x48);	spi.write(0x02);	spi.write(0x00);	spi.write(0xff);	spi.write(0xff);	
        spi.write(0x1e);	spi.write(0x48);	spi.write(0x02);	spi.write(0x00);	spi.write(0x00);	spi.write(0x00);	
        spi.write(0x1c);	spi.write(0x48);	spi.write(0x02);	spi.write(0x00);	spi.write(0x00);	spi.write(0x00);	
        spi.write(0x1a);	spi.write(0x48);	spi.write(0x02);	spi.write(0x00);	spi.write(0x1f);	spi.write(0x00);	
        spi.write(0x18);	spi.write(0x48);	spi.write(0x02);	spi.write(0x00);	spi.write(0xff);	spi.write(0xff);	
        spi.write(0x26);	spi.write(0x48);	spi.write(0x02);	spi.write(0x00);	spi.write(0x00);	spi.write(0x00);	
        spi.write(0x24);	spi.write(0x48);	spi.write(0x02);	spi.write(0x00);	spi.write(0x00);	spi.write(0x00);	
        spi.write(0x22);	spi.write(0x48);	spi.write(0x02);	spi.write(0x00);	spi.write(0x1f);	spi.write(0x00);	
        spi.write(0x20);	spi.write(0x48);	spi.write(0x02);	spi.write(0x00);	spi.write(0xff);	spi.write(0xff);	
        spi.write(0x2e);	spi.write(0x48);	spi.write(0x02);	spi.write(0x00);	spi.write(0x00);	spi.write(0x00);	
        spi.write(0x2c);	spi.write(0x48);	spi.write(0x02);	spi.write(0x00);	spi.write(0x00);	spi.write(0x00);	
        spi.write(0x2a);	spi.write(0x48);	spi.write(0x02);	spi.write(0x00);	spi.write(0x1f);	spi.write(0x00);	
        spi.write(0x28);	spi.write(0x48);	spi.write(0x02);	spi.write(0x00);	spi.write(0xff);	spi.write(0xff);	
        spi.write(0x36);	spi.write(0x48);	spi.write(0x02);	spi.write(0x00);	spi.write(0x00);	spi.write(0x00);	
        spi.write(0x34);	spi.write(0x48);	spi.write(0x02);	spi.write(0x00);	spi.write(0x00);	spi.write(0x00);	
        spi.write(0x32);	spi.write(0x48);	spi.write(0x02);	spi.write(0x00);	spi.write(0x1f);	spi.write(0x00);	
        spi.write(0x30);	spi.write(0x48);	spi.write(0x02);	spi.write(0x00);	spi.write(0xff);	spi.write(0xff);	
        spi.write(0x3e);	spi.write(0x48);	spi.write(0x02);	spi.write(0x00);	spi.write(0x00);	spi.write(0x00);	
        spi.write(0x3c);	spi.write(0x48);	spi.write(0x02);	spi.write(0x00);	spi.write(0x00);	spi.write(0x00);	
        spi.write(0x3a);	spi.write(0x48);	spi.write(0x02);	spi.write(0x00);	spi.write(0x1f);	spi.write(0x00);	
        spi.write(0x38);	spi.write(0x48);	spi.write(0x02);	spi.write(0x00);	spi.write(0xff);	spi.write(0xff);	
        spi.write(0x46);	spi.write(0x48);	spi.write(0x02);	spi.write(0x00);	spi.write(0x00);	spi.write(0x00);	
        spi.write(0x44);	spi.write(0x48);	spi.write(0x02);	spi.write(0x00);	spi.write(0x00);	spi.write(0x00);	
        spi.write(0x42);	spi.write(0x48);	spi.write(0x02);	spi.write(0x00);	spi.write(0x1f);	spi.write(0x00);	
        spi.write(0x40);	spi.write(0x48);	spi.write(0x02);	spi.write(0x00);	spi.write(0xff);	spi.write(0xff);	
        spi.write(0x4e);	spi.write(0x48);	spi.write(0x02);	spi.write(0x00);	spi.write(0x00);	spi.write(0x00);	
        spi.write(0x4c);	spi.write(0x48);	spi.write(0x02);	spi.write(0x00);	spi.write(0x00);	spi.write(0x00);	
        spi.write(0x4a);	spi.write(0x48);	spi.write(0x02);	spi.write(0x00);	spi.write(0x1f);	spi.write(0x00);	
        spi.write(0x48);	spi.write(0x48);	spi.write(0x02);	spi.write(0x00);	spi.write(0xff);	spi.write(0xff);	
        spi.write(0x56);	spi.write(0x48);	spi.write(0x02);	spi.write(0x00);	spi.write(0x00);	spi.write(0x00);	
        spi.write(0x54);	spi.write(0x48);	spi.write(0x02);	spi.write(0x00);	spi.write(0x00);	spi.write(0x00);	
        spi.write(0x52);	spi.write(0x48);	spi.write(0x02);	spi.write(0x00);	spi.write(0x1f);	spi.write(0x00);	
        spi.write(0x50);	spi.write(0x48);	spi.write(0x02);	spi.write(0x00);	spi.write(0xff);	spi.write(0xbf);	
        spi.write(0x5e);	spi.write(0x48);	spi.write(0x02);	spi.write(0x00);	spi.write(0x00);	spi.write(0x40);	
        spi.write(0x5c);	spi.write(0x48);	spi.write(0x02);	spi.write(0x00);	spi.write(0x08);	spi.write(0x00);	
        spi.write(0x5a);	spi.write(0x48);	spi.write(0x02);	spi.write(0x00);	spi.write(0x1f);	spi.write(0x40);	
        spi.write(0x58);	spi.write(0x48);	spi.write(0x02);	spi.write(0x00);	spi.write(0xff);	spi.write(0xff);	
        spi.write(0x66);	spi.write(0x48);	spi.write(0x02);	spi.write(0x00);	spi.write(0x00);	spi.write(0x00);	
        spi.write(0x64);	spi.write(0x48);	spi.write(0x02);	spi.write(0x00);	spi.write(0x00);	spi.write(0x00);	
        spi.write(0x62);	spi.write(0x48);	spi.write(0x02);	spi.write(0x00);	spi.write(0x1f);	spi.write(0x00);	
        spi.write(0x60);	spi.write(0x48);	spi.write(0x02);	spi.write(0x00);	spi.write(0xfc);	spi.write(0xff);	
        spi.write(0x6e);	spi.write(0x48);	spi.write(0x02);	spi.write(0x00);	spi.write(0x00);	spi.write(0x00);	
        spi.write(0x6c);	spi.write(0x48);	spi.write(0x02);	spi.write(0x00);	spi.write(0x00);	spi.write(0x00);	
        spi.write(0x6a);	spi.write(0x48);	spi.write(0x02);	spi.write(0x00);	spi.write(0x1f);	spi.write(0x00);	
        spi.write(0x68);	spi.write(0x48);	spi.write(0x02);	spi.write(0x00);	spi.write(0xff);	spi.write(0xff);	
        spi.write(0x76);	spi.write(0x48);	spi.write(0x02);	spi.write(0x00);	spi.write(0x00);	spi.write(0x00);	
        spi.write(0x74);	spi.write(0x48);	spi.write(0x02);	spi.write(0x00);	spi.write(0x00);	spi.write(0x00);	
        spi.write(0x72);	spi.write(0x48);	spi.write(0x02);	spi.write(0x00);	spi.write(0x1f);	spi.write(0x00);	
        spi.write(0x70);	spi.write(0x48);	spi.write(0x02);	spi.write(0x00);	spi.write(0xff);	spi.write(0xff);	
        spi.write(0x7e);	spi.write(0x48);	spi.write(0x02);	spi.write(0x00);	spi.write(0x00);	spi.write(0x00);	
        spi.write(0x7c);	spi.write(0x48);	spi.write(0x02);	spi.write(0x00);	spi.write(0x00);	spi.write(0x00);	
        spi.write(0x7a);	spi.write(0x48);	spi.write(0x02);	spi.write(0x00);	spi.write(0x1f);	spi.write(0x00);	
        spi.write(0x78);	spi.write(0x48);	spi.write(0x02);	spi.write(0x00);	spi.write(0xff);	spi.write(0xff);	
        spi.write(0x86);	spi.write(0x48);	spi.write(0x02);	spi.write(0x00);	spi.write(0x00);	spi.write(0x00);	
        spi.write(0x84);	spi.write(0x48);	spi.write(0x02);	spi.write(0x00);	spi.write(0x00);	spi.write(0x00);	
        spi.write(0x82);	spi.write(0x48);	spi.write(0x02);	spi.write(0x00);	spi.write(0x1f);	spi.write(0x00);	
        spi.write(0x80);	spi.write(0x48);	spi.write(0x02);	spi.write(0x00);	spi.write(0xff);	spi.write(0xff);	
        spi.write(0x8e);	spi.write(0x48);	spi.write(0x02);	spi.write(0x00);	spi.write(0x00);	spi.write(0x00);	
        spi.write(0x8c);	spi.write(0x48);	spi.write(0x02);	spi.write(0x00);	spi.write(0x00);	spi.write(0x00);	
        spi.write(0x8a);	spi.write(0x48);	spi.write(0x02);	spi.write(0x00);	spi.write(0x1f);	spi.write(0x00);	
        spi.write(0x88);	spi.write(0x48);	spi.write(0x02);	spi.write(0x00);	spi.write(0xff);	spi.write(0xff);	
        spi.write(0x96);	spi.write(0x48);	spi.write(0x02);	spi.write(0x00);	spi.write(0x00);	spi.write(0x00);	
        spi.write(0x94);	spi.write(0x48);	spi.write(0x02);	spi.write(0x00);	spi.write(0x00);	spi.write(0x00);	
        spi.write(0x92);	spi.write(0x48);	spi.write(0x02);	spi.write(0x00);	spi.write(0x1f);	spi.write(0x00);	
        spi.write(0x90);	spi.write(0x48);	spi.write(0x02);	spi.write(0x00);	spi.write(0xff);	spi.write(0xff);	
        spi.write(0x9e);	spi.write(0x48);	spi.write(0x02);	spi.write(0x00);	spi.write(0x00);	spi.write(0x00);	
        spi.write(0x9c);	spi.write(0x48);	spi.write(0x02);	spi.write(0x00);	spi.write(0x00);	spi.write(0x00);	
        spi.write(0x9a);	spi.write(0x48);	spi.write(0x02);	spi.write(0x00);	spi.write(0x1f);	spi.write(0x00);	
        spi.write(0x98);	spi.write(0x48);	spi.write(0x02);	spi.write(0x00);	spi.write(0xff);	spi.write(0xff);	
        spi.write(0xa6);	spi.write(0x48);	spi.write(0x02);	spi.write(0x00);	spi.write(0x00);	spi.write(0x00);	
        spi.write(0xa4);	spi.write(0x48);	spi.write(0x02);	spi.write(0x00);	spi.write(0x00);	spi.write(0x00);	
        spi.write(0xa2);	spi.write(0x48);	spi.write(0x02);	spi.write(0x00);	spi.write(0x1f);	spi.write(0x00);	
        spi.write(0xa0);	spi.write(0x48);	spi.write(0x02);	spi.write(0x00);	spi.write(0xff);	spi.write(0xf3);	
        spi.write(0xae);	spi.write(0x48);	spi.write(0x02);	spi.write(0x00);	spi.write(0x00);	spi.write(0x00);	
        spi.write(0xac);	spi.write(0x48);	spi.write(0x02);	spi.write(0x00);	spi.write(0x00);	spi.write(0x00);	
        spi.write(0xaa);	spi.write(0x48);	spi.write(0x02);	spi.write(0x00);	spi.write(0x1f);	spi.write(0x00);	
        spi.write(0xa8);	spi.write(0x48);	spi.write(0x02);	spi.write(0x00);	spi.write(0xff);	spi.write(0xff);	
        spi.write(0xb6);	spi.write(0x48);	spi.write(0x02);	spi.write(0x00);	spi.write(0x00);	spi.write(0x00);	
        spi.write(0xb4);	spi.write(0x48);	spi.write(0x02);	spi.write(0x00);	spi.write(0x00);	spi.write(0x00);	
        spi.write(0xb2);	spi.write(0x48);	spi.write(0x02);	spi.write(0x00);	spi.write(0x1f);	spi.write(0x00);	
        spi.write(0xb0);	spi.write(0x48);	spi.write(0x02);	spi.write(0x00);	spi.write(0xff);	spi.write(0xff);	
        spi.write(0x06);	spi.write(0x49);	spi.write(0x02);	spi.write(0x00);	spi.write(0x00);	spi.write(0x40);	
        spi.write(0x04);	spi.write(0x49);	spi.write(0x02);	spi.write(0x00);	spi.write(0x0f);	spi.write(0x36);	
        spi.write(0x02);	spi.write(0x49);	spi.write(0x02);	spi.write(0x00);	spi.write(0x1f);	spi.write(0x80);	
        spi.write(0x00);	spi.write(0x49);	spi.write(0x02);	spi.write(0x00);	spi.write(0xff);	spi.write(0xff);	
        spi.write(0x0e);	spi.write(0x49);	spi.write(0x02);	spi.write(0x00);	spi.write(0x00);	spi.write(0x00);	
        spi.write(0x0c);	spi.write(0x49);	spi.write(0x02);	spi.write(0x00);	spi.write(0x00);	spi.write(0x00);	
        spi.write(0x0a);	spi.write(0x49);	spi.write(0x02);	spi.write(0x00);	spi.write(0x1f);	spi.write(0x00);	
        spi.write(0x08);	spi.write(0x49);	spi.write(0x02);	spi.write(0x00);	spi.write(0xff);	spi.write(0xff);	
        spi.write(0x16);	spi.write(0x49);	spi.write(0x02);	spi.write(0x00);	spi.write(0x00);	spi.write(0x00);	
        spi.write(0x14);	spi.write(0x49);	spi.write(0x02);	spi.write(0x00);	spi.write(0x00);	spi.write(0x00);	
        spi.write(0x12);	spi.write(0x49);	spi.write(0x02);	spi.write(0x00);	spi.write(0x1f);	spi.write(0x00);	
        spi.write(0x10);	spi.write(0x49);	spi.write(0x02);	spi.write(0x00);	spi.write(0xff);	spi.write(0xff);	
        spi.write(0x1e);	spi.write(0x49);	spi.write(0x02);	spi.write(0x00);	spi.write(0x00);	spi.write(0x00);	
        spi.write(0x1c);	spi.write(0x49);	spi.write(0x02);	spi.write(0x00);	spi.write(0x00);	spi.write(0x00);	
        spi.write(0x1a);	spi.write(0x49);	spi.write(0x02);	spi.write(0x00);	spi.write(0x1f);	spi.write(0x00);	
        spi.write(0x18);	spi.write(0x49);	spi.write(0x02);	spi.write(0x00);	spi.write(0xff);	spi.write(0xff);	
        spi.write(0x26);	spi.write(0x49);	spi.write(0x02);	spi.write(0x00);	spi.write(0x00);	spi.write(0x00);	
        spi.write(0x24);	spi.write(0x49);	spi.write(0x02);	spi.write(0x00);	spi.write(0x00);	spi.write(0x00);	
        spi.write(0x22);	spi.write(0x49);	spi.write(0x02);	spi.write(0x00);	spi.write(0x1f);	spi.write(0x00);	
        spi.write(0x20);	spi.write(0x49);	spi.write(0x02);	spi.write(0x00);	spi.write(0xff);	spi.write(0xff);	
        spi.write(0x2e);	spi.write(0x49);	spi.write(0x02);	spi.write(0x00);	spi.write(0x00);	spi.write(0x00);	
        spi.write(0x2c);	spi.write(0x49);	spi.write(0x02);	spi.write(0x00);	spi.write(0x00);	spi.write(0x00);	
        spi.write(0x2a);	spi.write(0x49);	spi.write(0x02);	spi.write(0x00);	spi.write(0x1f);	spi.write(0x00);	
        spi.write(0x28);	spi.write(0x49);	spi.write(0x02);	spi.write(0x00);	spi.write(0xff);	spi.write(0xff);	
        spi.write(0x36);	spi.write(0x49);	spi.write(0x02);	spi.write(0x00);	spi.write(0x00);	spi.write(0x00);	
        spi.write(0x34);	spi.write(0x49);	spi.write(0x02);	spi.write(0x00);	spi.write(0x00);	spi.write(0x00);	
        spi.write(0x32);	spi.write(0x49);	spi.write(0x02);	spi.write(0x00);	spi.write(0x1f);	spi.write(0x00);	
        spi.write(0x30);	spi.write(0x49);	spi.write(0x02);	spi.write(0x00);	spi.write(0xff);	spi.write(0xff);	
        spi.write(0x3e);	spi.write(0x49);	spi.write(0x02);	spi.write(0x00);	spi.write(0x00);	spi.write(0x00);	
        spi.write(0x3c);	spi.write(0x49);	spi.write(0x02);	spi.write(0x00);	spi.write(0x00);	spi.write(0x00);	
        spi.write(0x3a);	spi.write(0x49);	spi.write(0x02);	spi.write(0x00);	spi.write(0x1f);	spi.write(0x00);	
        spi.write(0x38);	spi.write(0x49);	spi.write(0x02);	spi.write(0x00);	spi.write(0xff);	spi.write(0xff);	
        spi.write(0x46);	spi.write(0x49);	spi.write(0x02);	spi.write(0x00);	spi.write(0x00);	spi.write(0x00);	
        spi.write(0x44);	spi.write(0x49);	spi.write(0x02);	spi.write(0x00);	spi.write(0x00);	spi.write(0x00);	
        spi.write(0x42);	spi.write(0x49);	spi.write(0x02);	spi.write(0x00);	spi.write(0x1f);	spi.write(0x00);	
        spi.write(0x40);	spi.write(0x49);	spi.write(0x02);	spi.write(0x00);	spi.write(0xff);	spi.write(0xff);	
        spi.write(0x4e);	spi.write(0x49);	spi.write(0x02);	spi.write(0x00);	spi.write(0x00);	spi.write(0x00);	
